time	V(n001)	V(n002)
0.000000000000000e+000	0.000000e+000	0.000000e+000
2.868037985172123e-003	2.868038e-001	2.868026e-001
3.258662985172123e-003	3.258660e-001	3.258610e-001
3.649287985172123e-003	3.649277e-001	3.649051e-001
4.039912985172122e-003	4.039862e-001	4.038846e-001
4.430537985172123e-003	4.430314e-001	4.425838e-001
4.821162985172123e-003	4.820249e-001	4.801979e-001
5.211787985172123e-003	5.208687e-001	5.146680e-001
5.602412985172124e-003	5.594285e-001	5.431717e-001
5.993037985172124e-003	5.976388e-001	5.643397e-001
6.383662985172125e-003	6.355523e-001	5.792730e-001
6.774287985172125e-003	6.732678e-001	5.900492e-001
7.164912985172125e-003	7.108597e-001	5.982268e-001
7.555537985172126e-003	7.483693e-001	6.046807e-001
8.336787985172126e-003	8.232393e-001	6.144506e-001
9.508662985172127e-003	9.353391e-001	6.247943e-001
1.101535941374355e-002	1.079224e+000	6.329856e-001
1.252205584231498e-002	1.223062e+000	6.401944e-001
1.402875227088641e-002	1.366854e+000	6.464206e-001
1.553544869945784e-002	1.510598e+000	6.516642e-001
1.704214512802926e-002	1.654296e+000	6.559252e-001
1.854884155660069e-002	1.797947e+000	6.592037e-001
2.005553798517212e-002	1.941551e+000	6.614996e-001
2.433945393269453e-002	2.351202e+000	6.678828e-001
2.862336988021695e-002	2.759978e+000	6.735720e-001
3.290728582773937e-002	3.167881e+000	6.785673e-001
3.719120177526179e-002	3.574909e+000	6.828686e-001
4.147511772278420e-002	3.981063e+000	6.864758e-001
4.575903367030662e-002	4.386343e+000	6.893892e-001
5.004294961782903e-002	4.790748e+000	6.916085e-001
5.493409165406270e-002	4.324822e+000	6.894403e-001
5.982523369029637e-002	3.858839e+000	6.860941e-001
6.471637572653004e-002	3.392801e+000	6.815701e-001
6.960751776276371e-002	2.926706e+000	6.758682e-001
7.449865979899738e-002	2.460556e+000	6.689884e-001
7.938980183523105e-002	1.994349e+000	6.609307e-001
8.428094387146470e-002	1.528086e+000	6.516951e-001
8.528540815717900e-002	1.432311e+000	6.493517e-001
8.628987244289331e-002	1.336497e+000	6.461829e-001
8.729433672860761e-002	1.240644e+000	6.421887e-001
8.829880101432190e-002	1.144751e+000	6.373691e-001
8.930326530003621e-002	1.048819e+000	6.317242e-001
9.030772958575051e-002	9.528474e-001	6.252540e-001
9.131219387146480e-002	8.568367e-001	6.179583e-001
9.209344387146481e-002	7.820268e-001	6.094510e-001
9.248406887146482e-002	7.445669e-001	6.040428e-001
9.287469387146483e-002	7.070507e-001	5.974534e-001
9.326531887146483e-002	6.694506e-001	5.890995e-001
9.365594387146484e-002	6.317191e-001	5.779888e-001
9.404656887146484e-002	5.937795e-001	5.625068e-001
9.443719387146485e-002	5.555345e-001	5.406131e-001
9.482781887146485e-002	5.169411e-001	5.114006e-001
9.521844387146486e-002	4.780759e-001	4.764813e-001
9.560906887146486e-002	4.390738e-001	4.386878e-001
9.599969387146487e-002	4.000263e-001	3.999390e-001
9.639031887146488e-002	3.609672e-001	3.609478e-001
9.678094387146488e-002	3.219054e-001	3.219011e-001
9.717156887146489e-002	2.828431e-001	2.828421e-001
1.000000000010000e-001	-2.119530e-029	-4.451012e-028
1.004245056434118e-001	4.245058e-002	4.245080e-002
1.008490112858236e-001	8.490115e-002	8.490144e-002
1.012735169282354e-001	1.273517e-001	1.273519e-001
1.016980225706472e-001	1.698023e-001	1.698022e-001
1.021225282130590e-001	2.122528e-001	2.122524e-001
1.025470338554708e-001	2.547033e-001	2.547024e-001
1.029715394978825e-001	2.971539e-001	2.971522e-001
1.033621644978826e-001	3.362161e-001	3.362086e-001
1.037527894978826e-001	3.752773e-001	3.752436e-001
1.041434144978826e-001	4.143339e-001	4.141829e-001
1.045340394978826e-001	4.533711e-001	4.527143e-001
1.049246644978826e-001	4.923373e-001	4.897544e-001
1.053152894978826e-001	5.311182e-001	5.229034e-001
1.057059144978826e-001	5.695865e-001	5.494874e-001
1.060965394978826e-001	6.077094e-001	5.688192e-001
1.064871644978826e-001	6.455610e-001	5.824515e-001
1.068777894978826e-001	6.832375e-001	5.924084e-001
1.072684144978826e-001	7.208044e-001	6.000628e-001
1.076590394978826e-001	7.582977e-001	6.061735e-001
1.084402894978826e-001	8.331481e-001	6.155316e-001
1.092773430693112e-001	9.131905e-001	6.223145e-001
1.101143966407398e-001	9.931977e-001	6.283586e-001
1.109514502121684e-001	1.073170e+000	6.336639e-001
1.117885037835970e-001	1.153107e+000	6.382304e-001
1.126255573550255e-001	1.233008e+000	6.420581e-001
1.134626109264541e-001	1.312875e+000	6.451470e-001
1.142996644978827e-001	1.392706e+000	6.474971e-001
1.185407359264542e-001	1.797062e+000	6.568394e-001
1.227818073550257e-001	2.201362e+000	6.649854e-001
1.270228787835972e-001	2.605604e+000	6.719352e-001
1.312639502121687e-001	3.009790e+000	6.776889e-001
1.355050216407402e-001	3.413918e+000	6.822463e-001
1.397460930693116e-001	3.817990e+000	6.856075e-001
1.439871644978831e-001	4.222005e+000	6.877725e-001
1.500429487247595e-001	4.790748e+000	6.916085e-001
1.549340888451297e-001	4.324822e+000	6.894403e-001
1.598252289654998e-001	3.858840e+000	6.860941e-001
1.647163690858699e-001	3.392802e+000	6.815701e-001
1.696075092062400e-001	2.926707e+000	6.758682e-001
1.744986493266101e-001	2.460557e+000	6.689884e-001
1.793897894469803e-001	1.994350e+000	6.609307e-001
1.842809295673504e-001	1.528087e+000	6.516951e-001
1.852853938530647e-001	1.432313e+000	6.493517e-001
1.862898581387790e-001	1.336498e+000	6.461829e-001
1.872943224244933e-001	1.240645e+000	6.421887e-001
1.882987867102076e-001	1.144752e+000	6.373692e-001
1.893032509959219e-001	1.048820e+000	6.317243e-001
1.903077152816362e-001	9.528487e-001	6.252541e-001
1.913121795673505e-001	8.568380e-001	6.179584e-001
1.920934295673505e-001	7.820282e-001	6.094512e-001
1.924840545673505e-001	7.445683e-001	6.040429e-001
1.928746795673505e-001	7.070521e-001	5.974536e-001
1.932653045673505e-001	6.694520e-001	5.890999e-001
1.936559295673505e-001	6.317205e-001	5.779893e-001
1.940465545673505e-001	5.937809e-001	5.625075e-001
1.944371795673505e-001	5.555360e-001	5.406141e-001
1.948278045673505e-001	5.169425e-001	5.114018e-001
1.952184295673505e-001	4.780773e-001	4.764826e-001
1.956090545673505e-001	4.390752e-001	4.386892e-001
1.959996795673505e-001	4.000277e-001	3.999404e-001
1.963903045673505e-001	3.609686e-001	3.609492e-001
1.967809295673506e-001	3.219068e-001	3.219025e-001
1.971715545673506e-001	2.828445e-001	2.828435e-001
2.000000000020002e-001	3.389308e-029	7.117547e-028
2.004244929741677e-001	4.244931e-002	4.244954e-002
2.008489859463352e-001	8.489861e-002	8.489891e-002
2.012734789185027e-001	1.273479e-001	1.273481e-001
2.016979718906702e-001	1.697972e-001	1.697972e-001
2.021224648628377e-001	2.122465e-001	2.122461e-001
2.025469578350052e-001	2.546957e-001	2.546948e-001
2.029714508071727e-001	2.971450e-001	2.971433e-001
2.033620758071727e-001	3.362072e-001	3.361998e-001
2.037527008071727e-001	3.752684e-001	3.752347e-001
2.041433258071727e-001	4.143250e-001	4.141741e-001
2.045339508071727e-001	4.533623e-001	4.527056e-001
2.049245758071727e-001	4.923285e-001	4.897463e-001
2.053152008071728e-001	5.311095e-001	5.228966e-001
2.057058258071728e-001	5.695778e-001	5.494822e-001
2.060964508071728e-001	6.077008e-001	5.688155e-001
2.064870758071728e-001	6.455524e-001	5.824488e-001
2.068777008071728e-001	6.832290e-001	5.924064e-001
2.072683258071728e-001	7.207959e-001	6.000613e-001
2.076589508071728e-001	7.582892e-001	6.061722e-001
2.084402008071728e-001	8.331397e-001	6.155307e-001
2.092772543786014e-001	9.131820e-001	6.223138e-001
2.101143079500300e-001	9.931892e-001	6.283580e-001
2.109513615214586e-001	1.073161e+000	6.336634e-001
2.117884150928871e-001	1.153098e+000	6.382300e-001
2.126254686643157e-001	1.233000e+000	6.420578e-001
2.134625222357443e-001	1.312866e+000	6.451467e-001
2.142995758071729e-001	1.392698e+000	6.474968e-001
2.185406472357444e-001	1.797054e+000	6.568391e-001
2.227817186643158e-001	2.201353e+000	6.649852e-001
2.270227900928873e-001	2.605596e+000	6.719351e-001
2.312638615214588e-001	3.009782e+000	6.776888e-001
2.355049329500303e-001	3.413910e+000	6.822462e-001
2.397460043786018e-001	3.817982e+000	6.856074e-001
2.439870758071733e-001	4.221996e+000	6.877725e-001
2.500429511099456e-001	4.790748e+000	6.916085e-001
2.549340963392849e-001	4.324821e+000	6.894403e-001
2.598252415686242e-001	3.858839e+000	6.860941e-001
2.647163867979636e-001	3.392800e+000	6.815701e-001
2.696075320273029e-001	2.926705e+000	6.758682e-001
2.744986772566422e-001	2.460554e+000	6.689884e-001
2.793898224859815e-001	1.994347e+000	6.609306e-001
2.842809677153209e-001	1.528084e+000	6.516950e-001
2.852854320010351e-001	1.432309e+000	6.493516e-001
2.862898962867493e-001	1.336495e+000	6.461828e-001
2.872943605724636e-001	1.240641e+000	6.421886e-001
2.882988248581778e-001	1.144748e+000	6.373691e-001
2.893032891438920e-001	1.048816e+000	6.317241e-001
2.903077534296062e-001	9.528451e-001	6.252538e-001
2.913122177153205e-001	8.568344e-001	6.179581e-001
2.920934677153204e-001	7.820245e-001	6.094507e-001
2.924840927153204e-001	7.445646e-001	6.040424e-001
2.928747177153204e-001	7.070484e-001	5.974529e-001
2.932653427153203e-001	6.694483e-001	5.890989e-001
2.936559677153203e-001	6.317168e-001	5.779880e-001
2.940465927153203e-001	5.937772e-001	5.625057e-001
2.944372177153203e-001	5.555322e-001	5.406116e-001
2.948278427153203e-001	5.169387e-001	5.113986e-001
2.952184677153202e-001	4.780735e-001	4.764790e-001
2.956090927153202e-001	4.390714e-001	4.386855e-001
2.959997177153202e-001	4.000239e-001	3.999366e-001
2.963903427153202e-001	3.609648e-001	3.609454e-001
2.967809677153201e-001	3.219030e-001	3.218987e-001
2.971715927153201e-001	2.828407e-001	2.828397e-001
3.000000000030004e-001	-1.615759e-029	-3.393095e-028
3.004245267624834e-001	4.245269e-002	4.245291e-002
3.008490535219665e-001	8.490538e-002	8.490566e-002
3.012735802814495e-001	1.273580e-001	1.273583e-001
3.016981070409325e-001	1.698107e-001	1.698107e-001
3.021226338004155e-001	2.122634e-001	2.122629e-001
3.025471605598985e-001	2.547160e-001	2.547151e-001
3.029716873193815e-001	2.971686e-001	2.971670e-001
3.033623123193815e-001	3.362309e-001	3.362234e-001
3.037529373193815e-001	3.752920e-001	3.752584e-001
3.041435623193814e-001	4.143487e-001	4.141976e-001
3.045341873193814e-001	4.533859e-001	4.527287e-001
3.049248123193814e-001	4.923520e-001	4.897678e-001
3.053154373193814e-001	5.311328e-001	5.229148e-001
3.057060623193814e-001	5.696010e-001	5.494961e-001
3.060966873193813e-001	6.077238e-001	5.688253e-001
3.064873123193813e-001	6.455753e-001	5.824558e-001
3.068779373193813e-001	6.832517e-001	5.924116e-001
3.072685623193813e-001	7.208186e-001	6.000654e-001
3.076591873193812e-001	7.583119e-001	6.061755e-001
3.084404373193812e-001	8.331623e-001	6.155332e-001
3.092774908908098e-001	9.132047e-001	6.223158e-001
3.101145444622382e-001	9.932119e-001	6.283596e-001
3.109515980336668e-001	1.073184e+000	6.336647e-001
3.117886516050953e-001	1.153121e+000	6.382310e-001
3.126257051765238e-001	1.233022e+000	6.420587e-001
3.134627587479523e-001	1.312889e+000	6.451475e-001
3.142998123193809e-001	1.392720e+000	6.474977e-001
3.183176694622378e-001	1.775802e+000	6.564962e-001
3.223355266050947e-001	2.158829e+000	6.643604e-001
3.263533837479516e-001	2.541803e+000	6.710904e-001
3.303712408908086e-001	2.924722e+000	6.766862e-001
3.343890980336655e-001	3.307588e+000	6.811477e-001
3.384069551765224e-001	3.690399e+000	6.844749e-001
3.424248123193793e-001	4.073157e+000	6.866679e-001
3.428154373193793e-001	4.110373e+000	6.869485e-001
3.500429511109458e-001	4.790748e+000	6.916085e-001
3.549340963402851e-001	4.324821e+000	6.894403e-001
3.598252415696245e-001	3.858839e+000	6.860941e-001
3.647163867989638e-001	3.392800e+000	6.815701e-001
3.696075320283031e-001	2.926705e+000	6.758682e-001
3.744986772576425e-001	2.460554e+000	6.689884e-001
3.793898224869818e-001	1.994347e+000	6.609306e-001
3.842809677163211e-001	1.528084e+000	6.516950e-001
3.852854320020353e-001	1.432309e+000	6.493516e-001
3.862898962877496e-001	1.336495e+000	6.461828e-001
3.872943605734638e-001	1.240641e+000	6.421886e-001
3.882988248591780e-001	1.144748e+000	6.373691e-001
3.893032891448922e-001	1.048816e+000	6.317241e-001
3.903077534306065e-001	9.528451e-001	6.252538e-001
3.913122177163207e-001	8.568344e-001	6.179581e-001
3.920934677163206e-001	7.820245e-001	6.094507e-001
3.924840927163206e-001	7.445646e-001	6.040424e-001
3.928747177163206e-001	7.070484e-001	5.974529e-001
3.932653427163206e-001	6.694483e-001	5.890989e-001
3.936559677163206e-001	6.317168e-001	5.779880e-001
3.940465927163205e-001	5.937772e-001	5.625057e-001
3.944372177163205e-001	5.555322e-001	5.406116e-001
3.948278427163205e-001	5.169387e-001	5.113986e-001
3.952184677163205e-001	4.780735e-001	4.764790e-001
3.956090927163204e-001	4.390714e-001	4.386855e-001
3.959997177163204e-001	4.000239e-001	3.999366e-001
3.963903427163204e-001	3.609648e-001	3.609454e-001
3.967809677163204e-001	3.219030e-001	3.218987e-001
3.971715927163204e-001	2.828407e-001	2.828397e-001
3.997974395793614e-001	2.025604e-002	2.025604e-002
4.000000000000000e-001	4.000622e-010	4.000622e-010
