time	V(n001)	V(n002)
0.000000000000000e+000	-9.848467e+000	-6.817799e+000
1.023558997881733e-003	-9.458527e+000	-6.817530e+000
2.047117995763465e-003	-9.068554e+000	-6.816576e+000
3.070676993645197e-003	-8.678549e+000	-6.814938e+000
4.094235991526930e-003	-8.288511e+000	-6.812615e+000
5.117794989408663e-003	-7.898440e+000	-6.809607e+000
6.141353987290395e-003	-7.508337e+000	-6.805914e+000
7.164912985172125e-003	-7.118201e+000	-6.801537e+000
7.555537985172126e-003	-6.969118e+000	-6.795791e+000
7.946162985172126e-003	-6.818527e+000	-6.758376e+000
8.336787985172126e-003	-6.664818e+000	-6.655488e+000
8.727412985172127e-003	-6.508990e+000	-6.508091e+000
9.118037985172127e-003	-6.352756e+000	-6.352175e+000
9.508662985172127e-003	-6.196516e+000	-6.196145e+000
9.899287985172128e-003	-6.040273e+000	-6.040040e+000
1.028991298517213e-002	-5.884027e+000	-5.883885e+000
1.068053798517213e-002	-5.727780e+000	-5.727698e+000
1.107116298517213e-002	-5.571533e+000	-5.571489e+000
1.146178798517213e-002	-5.415284e+000	-5.415267e+000
1.185241298517213e-002	-5.259035e+000	-5.259035e+000
1.224303798517213e-002	-5.102785e+000	-5.102797e+000
1.263366298517213e-002	-4.946536e+000	-4.946555e+000
1.341491298517213e-002	-4.634036e+000	-4.634064e+000
1.414035941374356e-002	-4.343858e+000	-4.343888e+000
1.486580584231499e-002	-4.053679e+000	-4.053712e+000
1.559125227088641e-002	-3.763501e+000	-3.763536e+000
1.631669869945784e-002	-3.473322e+000	-3.473359e+000
1.704214512802927e-002	-3.183144e+000	-3.183182e+000
1.776759155660070e-002	-2.892965e+000	-2.893004e+000
1.849303798517212e-002	-2.602787e+000	-2.602826e+000
1.933009155660069e-002	-2.267965e+000	-2.268006e+000
2.016714512802926e-002	-1.933144e+000	-1.933186e+000
2.100419869945783e-002	-1.598323e+000	-1.598367e+000
2.184125227088640e-002	-1.263501e+000	-1.263549e+000
2.267830584231496e-002	-9.286802e-001	-9.287311e-001
2.351535941374353e-002	-5.938590e-001	-5.939140e-001
2.435241298517210e-002	-2.590378e-001	-2.590976e-001
2.513366298517210e-002	5.346180e-002	5.339393e-002
2.552428798517210e-002	2.097115e-001	2.096370e-001
2.591491298517210e-002	3.659523e-001	3.656948e-001
2.630553798517209e-002	5.216421e-001	5.101805e-001
2.669616298517209e-002	6.753985e-001	6.140647e-001
2.705618323450580e-002	8.147626e-001	6.605482e-001
2.742522364492535e-002	9.562598e-001	6.796665e-001
2.776311587210142e-002	1.085473e+000	6.900017e-001
2.854436587210141e-002	1.383802e+000	7.049208e-001
2.949302658638713e-002	1.745653e+000	7.145019e-001
3.044168730067284e-002	2.107446e+000	7.228620e-001
3.139034801495855e-002	2.469180e+000	7.300011e-001
3.233900872924426e-002	2.830857e+000	7.359193e-001
3.328766944352997e-002	3.192475e+000	7.406165e-001
3.423633015781568e-002	3.554035e+000	7.440927e-001
3.518499087210139e-002	3.915537e+000	7.463480e-001
3.730448857742613e-002	4.725968e+000	7.519344e-001
3.942398628275086e-002	5.534681e+000	7.569634e-001
4.154348398807559e-002	6.341676e+000	7.614351e-001
4.366298169340032e-002	7.146952e+000	7.653493e-001
4.578247939872505e-002	7.950511e+000	7.687062e-001
4.790197710404979e-002	8.752352e+000	7.715057e-001
5.002147480937452e-002	9.552474e+000	7.737478e-001
5.262773824681594e-002	8.559505e+000	7.715037e-001
5.523400168425736e-002	7.566477e+000	7.680277e-001
5.784026512169879e-002	6.573390e+000	7.633197e-001
6.044652855914021e-002	5.580245e+000	7.573797e-001
6.305279199658163e-002	4.587041e+000	7.502078e-001
6.565905543402306e-002	3.593779e+000	7.418039e-001
6.826531887146448e-002	2.600458e+000	7.321680e-001
6.882335458575020e-002	2.387764e+000	7.298906e-001
6.938139030003591e-002	2.175015e+000	7.264369e-001
6.993942601432164e-002	1.962209e+000	7.218068e-001
7.049746172860737e-002	1.749348e+000	7.160003e-001
7.105549744289309e-002	1.536430e+000	7.090174e-001
7.161353315717881e-002	1.323457e+000	7.008581e-001
7.217156887146453e-002	1.110427e+000	6.915224e-001
7.256219387146454e-002	9.610661e-001	6.799381e-001
7.295281887146454e-002	8.112611e-001	6.590346e-001
7.334344387146455e-002	6.600865e-001	6.093664e-001
7.366013227000984e-002	5.354715e-001	5.259594e-001
7.399659398851385e-002	4.013540e-001	4.011856e-001
7.425099363520786e-002	2.996064e-001	2.996825e-001
7.530992160783107e-002	-1.239655e-001	-1.239026e-001
7.614697517925965e-002	-4.587872e-001	-4.587299e-001
7.698402875068823e-002	-7.936089e-001	-7.935563e-001
7.782108232211682e-002	-1.128431e+000	-1.128382e+000
7.865813589354539e-002	-1.463252e+000	-1.463207e+000
7.949518946497398e-002	-1.798074e+000	-1.798031e+000
8.033224303640257e-002	-2.132895e+000	-2.132854e+000
8.116929660783115e-002	-2.467717e+000	-2.467676e+000
8.189474303640258e-002	-2.757895e+000	-2.757857e+000
8.262018946497403e-002	-3.048074e+000	-3.048036e+000
8.334563589354546e-002	-3.338252e+000	-3.338216e+000
8.407108232211691e-002	-3.628431e+000	-3.628395e+000
8.479652875068834e-002	-3.918610e+000	-3.918573e+000
8.552197517925979e-002	-4.208788e+000	-4.208751e+000
8.624742160783122e-002	-4.498967e+000	-4.498929e+000
8.702867160783123e-002	-4.811467e+000	-4.811423e+000
8.741929660783124e-002	-4.967716e+000	-4.967669e+000
8.780992160783124e-002	-5.123966e+000	-5.123911e+000
8.820054660783125e-002	-5.280215e+000	-5.280149e+000
8.859117160783125e-002	-5.436464e+000	-5.436380e+000
8.898179660783126e-002	-5.592713e+000	-5.592602e+000
8.937242160783127e-002	-5.748961e+000	-5.748809e+000
8.976304660783127e-002	-5.905208e+000	-5.904993e+000
9.015367160783128e-002	-6.061453e+000	-6.061142e+000
9.054429660783128e-002	-6.217696e+000	-6.217240e+000
9.093492160783129e-002	-6.373935e+000	-6.373258e+000
9.132554660783129e-002	-6.530168e+000	-6.529155e+000
9.171617160783130e-002	-6.686396e+000	-6.684934e+000
9.176499973283130e-002	-6.705923e+000	-6.704376e+000
9.186265598283129e-002	-6.744699e+000	-6.737439e+000
9.205796848283129e-002	-6.821276e+000	-6.783047e+000
9.210679660783129e-002	-6.840146e+000	-6.788688e+000
9.220445285783128e-002	-6.877512e+000	-6.792132e+000
9.239976535783129e-002	-6.952114e+000	-6.796271e+000
9.279039035783129e-002	-7.101157e+000	-6.801177e+000
9.362744392925988e-002	-7.420227e+000	-6.805218e+000
9.446449750068846e-002	-7.739268e+000	-6.808640e+000
9.530155107211705e-002	-8.058279e+000	-6.811444e+000
9.613860464354562e-002	-8.377261e+000	-6.813630e+000
9.697565821497421e-002	-8.696213e+000	-6.815198e+000
9.781271178640280e-002	-9.015135e+000	-6.816147e+000
9.864976535783138e-002	-9.334028e+000	-6.816478e+000
1.000000000010000e-001	-9.848466e+000	-6.817790e+000
1.010165440743597e-001	-9.461196e+000	-6.817482e+000
1.020330881477194e-001	-9.073896e+000	-6.816526e+000
1.030496322210791e-001	-8.686565e+000	-6.814921e+000
1.040661762944388e-001	-8.299203e+000	-6.812667e+000
1.050827203677985e-001	-7.911809e+000	-6.809765e+000
1.060992644411582e-001	-7.524385e+000	-6.806213e+000
1.071158085145179e-001	-7.136930e+000	-6.802013e+000
1.075064335145179e-001	-6.987884e+000	-6.797021e+000
1.078970585145179e-001	-6.837543e+000	-6.764883e+000
1.082876835145179e-001	-6.684257e+000	-6.670864e+000
1.086783085145179e-001	-6.528629e+000	-6.527680e+000
1.090689335145179e-001	-6.372396e+000	-6.371782e+000
1.094595585145179e-001	-6.216157e+000	-6.215764e+000
1.098501835145179e-001	-6.059914e+000	-6.059667e+000
1.102408085145179e-001	-5.903669e+000	-5.903517e+000
1.106314335145179e-001	-5.747422e+000	-5.747333e+000
1.110220585145179e-001	-5.591174e+000	-5.591126e+000
1.114126835145179e-001	-5.434926e+000	-5.434906e+000
1.118033085145179e-001	-5.278677e+000	-5.278675e+000
1.121939335145179e-001	-5.122427e+000	-5.122437e+000
1.125845585145179e-001	-4.966177e+000	-4.966196e+000
1.133658085145179e-001	-4.653678e+000	-4.653705e+000
1.140354513716608e-001	-4.385821e+000	-4.385851e+000
1.147050942288037e-001	-4.117964e+000	-4.117997e+000
1.153747370859466e-001	-3.850107e+000	-3.850142e+000
1.160443799430894e-001	-3.582250e+000	-3.582286e+000
1.167140228002323e-001	-3.314393e+000	-3.314430e+000
1.173836656573751e-001	-3.046536e+000	-3.046574e+000
1.180533085145180e-001	-2.778678e+000	-2.778717e+000
1.189461656573752e-001	-2.421536e+000	-2.421575e+000
1.198390228002323e-001	-2.064393e+000	-2.064434e+000
1.207318799430895e-001	-1.707250e+000	-1.707294e+000
1.216247370859466e-001	-1.350108e+000	-1.350154e+000
1.225175942288038e-001	-9.929649e-001	-9.930151e-001
1.234104513716609e-001	-6.358222e-001	-6.358767e-001
1.243033085145181e-001	-2.786796e-001	-2.787390e-001
1.250845585145181e-001	3.382004e-002	3.375281e-002
1.254751835145181e-001	1.900697e-001	1.899964e-001
1.258658085145181e-001	3.463151e-001	3.461485e-001
1.262564335145181e-001	5.021501e-001	4.936830e-001
1.266470585145181e-001	6.563389e-001	6.066474e-001
1.269601505055461e-001	7.778740e-001	6.541492e-001
1.272840834102677e-001	9.022300e-001	6.741628e-001
1.276282921539850e-001	1.033938e+000	6.863517e-001
1.284095421539850e-001	1.332345e+000	7.029046e-001
1.293023992968422e-001	1.672941e+000	7.125660e-001
1.301952564396993e-001	2.013478e+000	7.209930e-001
1.310881135825565e-001	2.353957e+000	7.281857e-001
1.319809707254136e-001	2.694377e+000	7.341439e-001
1.328738278682708e-001	3.034738e+000	7.388677e-001
1.337666850111279e-001	3.375040e+000	7.423572e-001
1.346595421539851e-001	3.715283e+000	7.446122e-001
1.368541038981787e-001	4.554377e+000	7.506573e-001
1.390486656423722e-001	5.391734e+000	7.560748e-001
1.412432273865657e-001	6.227355e+000	7.608647e-001
1.434377891307593e-001	7.061240e+000	7.650269e-001
1.456323508749528e-001	7.893388e+000	7.685615e-001
1.478269126191464e-001	8.723799e+000	7.714685e-001
1.500214743633399e-001	9.552474e+000	7.737478e-001
1.526277358210556e-001	8.559506e+000	7.715037e-001
1.552339972787714e-001	7.566479e+000	7.680277e-001
1.578402587364871e-001	6.573393e+000	7.633197e-001
1.604465201942029e-001	5.580248e+000	7.573797e-001
1.630527816519186e-001	4.587045e+000	7.502078e-001
1.656590431096344e-001	3.593784e+000	7.418039e-001
1.682653045673501e-001	2.600463e+000	7.321680e-001
1.688233402816359e-001	2.387770e+000	7.298907e-001
1.693813759959216e-001	2.175020e+000	7.264370e-001
1.699394117102073e-001	1.962215e+000	7.218069e-001
1.704974474244930e-001	1.749353e+000	7.160004e-001
1.710554831387788e-001	1.536436e+000	7.090176e-001
1.716135188530645e-001	1.323462e+000	7.008584e-001
1.721715545673502e-001	1.110433e+000	6.915228e-001
1.725621795673502e-001	9.610715e-001	6.799386e-001
1.729528045673502e-001	8.112666e-001	6.590357e-001
1.733434295673502e-001	6.600921e-001	6.093692e-001
1.736601194332191e-001	5.354766e-001	5.259635e-001
1.739965846377706e-001	4.013577e-001	4.011893e-001
1.742509684441389e-001	2.996164e-001	2.996925e-001
1.753098921589771e-001	-1.239537e-001	-1.238909e-001
1.761469457304057e-001	-4.587754e-001	-4.587181e-001
1.769839993018343e-001	-7.935971e-001	-7.935445e-001
1.778210528732629e-001	-1.128419e+000	-1.128370e+000
1.786581064446914e-001	-1.463240e+000	-1.463195e+000
1.794951600161200e-001	-1.798062e+000	-1.798019e+000
1.803322135875486e-001	-2.132883e+000	-2.132842e+000
1.811692671589772e-001	-2.467705e+000	-2.467665e+000
1.818947135875486e-001	-2.757883e+000	-2.757845e+000
1.826201600161201e-001	-3.048062e+000	-3.048025e+000
1.833456064446915e-001	-3.338241e+000	-3.338204e+000
1.840710528732630e-001	-3.628419e+000	-3.628383e+000
1.847964993018344e-001	-3.918598e+000	-3.918561e+000
1.855219457304058e-001	-4.208776e+000	-4.208739e+000
1.862473921589773e-001	-4.498955e+000	-4.498917e+000
1.870286421589773e-001	-4.811455e+000	-4.811412e+000
1.874192671589773e-001	-4.967704e+000	-4.967657e+000
1.878098921589773e-001	-5.123954e+000	-5.123899e+000
1.882005171589773e-001	-5.280203e+000	-5.280137e+000
1.885911421589773e-001	-5.436453e+000	-5.436368e+000
1.889817671589773e-001	-5.592701e+000	-5.592590e+000
1.893723921589773e-001	-5.748949e+000	-5.748797e+000
1.897630171589773e-001	-5.905196e+000	-5.904981e+000
1.901536421589773e-001	-6.061441e+000	-6.061131e+000
1.905442671589773e-001	-6.217684e+000	-6.217228e+000
1.909348921589773e-001	-6.373923e+000	-6.373246e+000
1.913255171589773e-001	-6.530156e+000	-6.529143e+000
1.917161421589773e-001	-6.686384e+000	-6.684922e+000
1.917649702839774e-001	-6.705911e+000	-6.704365e+000
1.918626265339773e-001	-6.744688e+000	-6.737429e+000
1.920579390339773e-001	-6.821265e+000	-6.783044e+000
1.921067671589773e-001	-6.840135e+000	-6.788687e+000
1.922044234089773e-001	-6.877501e+000	-6.792131e+000
1.923997359089773e-001	-6.952103e+000	-6.796270e+000
1.927903609089773e-001	-7.101146e+000	-6.801177e+000
1.936274144804059e-001	-7.420216e+000	-6.805217e+000
1.944644680518345e-001	-7.739256e+000	-6.808640e+000
1.953015216232631e-001	-8.058267e+000	-6.811444e+000
1.961385751946917e-001	-8.377249e+000	-6.813630e+000
1.969756287661202e-001	-8.696201e+000	-6.815198e+000
1.978126823375488e-001	-9.015124e+000	-6.816147e+000
1.986497359089774e-001	-9.334018e+000	-6.816478e+000
2.000000000020002e-001	-9.848466e+000	-6.817790e+000
2.010167266644557e-001	-9.461127e+000	-6.817483e+000
2.020334533269111e-001	-9.073757e+000	-6.816527e+000
2.030501799893665e-001	-8.686356e+000	-6.814921e+000
2.040669066518220e-001	-8.298925e+000	-6.812666e+000
2.050836333142774e-001	-7.911462e+000	-6.809761e+000
2.061003599767328e-001	-7.523968e+000	-6.806206e+000
2.071170866391883e-001	-7.136443e+000	-6.802002e+000
2.075077116391883e-001	-6.987395e+000	-6.796994e+000
2.078983366391883e-001	-6.837049e+000	-6.764720e+000
2.082889616391883e-001	-6.683751e+000	-6.670466e+000
2.086795866391883e-001	-6.528118e+000	-6.527171e+000
2.090702116391883e-001	-6.371884e+000	-6.371272e+000
2.094608366391883e-001	-6.215646e+000	-6.215253e+000
2.098514616391883e-001	-6.059403e+000	-6.059155e+000
2.102420866391883e-001	-5.903158e+000	-5.903006e+000
2.106327116391883e-001	-5.746911e+000	-5.746822e+000
2.110233366391883e-001	-5.590663e+000	-5.590616e+000
2.114139616391883e-001	-5.434414e+000	-5.434394e+000
2.118045866391883e-001	-5.278165e+000	-5.278163e+000
2.121952116391883e-001	-5.121916e+000	-5.121926e+000
2.125858366391883e-001	-4.965666e+000	-4.965684e+000
2.133670866391884e-001	-4.653167e+000	-4.653194e+000
2.140367294963312e-001	-4.385310e+000	-4.385340e+000
2.147063723534741e-001	-4.117453e+000	-4.117485e+000
2.153760152106169e-001	-3.849596e+000	-3.849630e+000
2.160456580677598e-001	-3.581739e+000	-3.581775e+000
2.167153009249027e-001	-3.313882e+000	-3.313919e+000
2.173849437820456e-001	-3.046024e+000	-3.046063e+000
2.180545866391884e-001	-2.778167e+000	-2.778206e+000
2.189474437820456e-001	-2.421024e+000	-2.421064e+000
2.198403009249027e-001	-2.063882e+000	-2.063923e+000
2.207331580677599e-001	-1.706739e+000	-1.706783e+000
2.216260152106170e-001	-1.349596e+000	-1.349643e+000
2.225188723534742e-001	-9.924536e-001	-9.925039e-001
2.234117294963314e-001	-6.353109e-001	-6.353655e-001
2.243045866391885e-001	-2.781683e-001	-2.782278e-001
2.250858366391885e-001	3.433129e-002	3.426404e-002
2.254764616391885e-001	1.905810e-001	1.905077e-001
2.258670866391885e-001	3.468263e-001	3.466580e-001
2.262577116391885e-001	5.026577e-001	4.941188e-001
2.266483366391885e-001	6.568356e-001	6.068538e-001
2.269624321550177e-001	7.787514e-001	6.543217e-001
2.272871161700585e-001	9.033916e-001	6.742945e-001
2.276310065841846e-001	1.034975e+000	6.864306e-001
2.284122565841846e-001	1.333381e+000	7.029464e-001
2.293051137270417e-001	1.673977e+000	7.125978e-001
2.301979708698989e-001	2.014514e+000	7.210166e-001
2.310908280127560e-001	2.354992e+000	7.282029e-001
2.319836851556132e-001	2.695411e+000	7.341565e-001
2.328765422984704e-001	3.035772e+000	7.388774e-001
2.337693994413275e-001	3.376074e+000	7.423658e-001
2.346622565841847e-001	3.716318e+000	7.446215e-001
2.368564307230773e-001	4.555264e+000	7.506641e-001
2.390506048619699e-001	5.392473e+000	7.560795e-001
2.412447790008625e-001	6.227946e+000	7.608677e-001
2.434389531397551e-001	7.061683e+000	7.650286e-001
2.456331272786478e-001	7.893683e+000	7.685622e-001
2.478273014175404e-001	8.723946e+000	7.714686e-001
2.500214755564330e-001	9.552473e+000	7.737478e-001
2.526277422934171e-001	8.559503e+000	7.715038e-001
2.552340090304012e-001	7.566474e+000	7.680277e-001
2.578402757673853e-001	6.573386e+000	7.633197e-001
2.604465425043694e-001	5.580240e+000	7.573797e-001
2.630528092413536e-001	4.587035e+000	7.502077e-001
2.656590759783377e-001	3.593771e+000	7.418038e-001
2.682653427153218e-001	2.600449e+000	7.321678e-001
2.688233784296075e-001	2.387755e+000	7.298905e-001
2.693814141438931e-001	2.175006e+000	7.264368e-001
2.699394498581788e-001	1.962200e+000	7.218066e-001
2.704974855724645e-001	1.749339e+000	7.160001e-001
2.710555212867502e-001	1.536421e+000	7.090171e-001
2.716135570010358e-001	1.323448e+000	7.008577e-001
2.721715927153215e-001	1.110418e+000	6.915218e-001
2.725622177153215e-001	9.610569e-001	6.799372e-001
2.729528427153215e-001	8.112520e-001	6.590327e-001
2.733434677153215e-001	6.600772e-001	6.093616e-001
2.736601553783277e-001	5.354623e-001	5.259519e-001
2.739966127779255e-001	4.013465e-001	4.011782e-001
2.742510337696016e-001	2.995903e-001	2.996664e-001
2.753099654748735e-001	-1.239830e-001	-1.239202e-001
2.761470190463021e-001	-4.588047e-001	-4.587474e-001
2.769840726177306e-001	-7.936264e-001	-7.935739e-001
2.778211261891591e-001	-1.128448e+000	-1.128399e+000
2.786581797605876e-001	-1.463270e+000	-1.463224e+000
2.794952333320162e-001	-1.798091e+000	-1.798048e+000
2.803322869034446e-001	-2.132913e+000	-2.132872e+000
2.811693404748732e-001	-2.467734e+000	-2.467694e+000
2.818947869034446e-001	-2.757913e+000	-2.757874e+000
2.826202333320160e-001	-3.048091e+000	-3.048054e+000
2.833456797605873e-001	-3.338270e+000	-3.338233e+000
2.840711261891588e-001	-3.628449e+000	-3.628412e+000
2.847965726177301e-001	-3.918627e+000	-3.918590e+000
2.855220190463015e-001	-4.208806e+000	-4.208769e+000
2.862474654748729e-001	-4.498984e+000	-4.498946e+000
2.870287154748729e-001	-4.811484e+000	-4.811441e+000
2.874193404748728e-001	-4.967734e+000	-4.967686e+000
2.878099654748728e-001	-5.123983e+000	-5.123928e+000
2.882005904748728e-001	-5.280233e+000	-5.280166e+000
2.885912154748728e-001	-5.436482e+000	-5.436398e+000
2.889818404748727e-001	-5.592731e+000	-5.592619e+000
2.893724654748727e-001	-5.748979e+000	-5.748827e+000
2.897630904748727e-001	-5.905226e+000	-5.905010e+000
2.901537154748727e-001	-6.061471e+000	-6.061160e+000
2.905443404748727e-001	-6.217713e+000	-6.217257e+000
2.909349654748726e-001	-6.373952e+000	-6.373275e+000
2.913255904748726e-001	-6.530186e+000	-6.529173e+000
2.917162154748726e-001	-6.686413e+000	-6.684952e+000
2.917650435998726e-001	-6.705940e+000	-6.704394e+000
2.918626998498726e-001	-6.744717e+000	-6.737454e+000
2.920580123498726e-001	-6.821293e+000	-6.783051e+000
2.921068404748726e-001	-6.840163e+000	-6.788691e+000
2.922044967248726e-001	-6.877529e+000	-6.792134e+000
2.923998092248726e-001	-6.952131e+000	-6.796272e+000
2.927904342248726e-001	-7.101174e+000	-6.801177e+000
2.936274877963012e-001	-7.420244e+000	-6.805218e+000
2.944645413677297e-001	-7.739284e+000	-6.808640e+000
2.953015949391582e-001	-8.058295e+000	-6.811444e+000
2.961386485105867e-001	-8.377277e+000	-6.813630e+000
2.969757020820152e-001	-8.696229e+000	-6.815198e+000
2.978127556534437e-001	-9.015152e+000	-6.816147e+000
2.986498092248723e-001	-9.334045e+000	-6.816479e+000
3.000000000030004e-001	-9.848466e+000	-6.817790e+000
3.010162721131096e-001	-9.461300e+000	-6.817481e+000
3.020325442232187e-001	-9.074104e+000	-6.816525e+000
3.030488163333278e-001	-8.686876e+000	-6.814921e+000
3.040650884434369e-001	-8.299618e+000	-6.812669e+000
3.050813605535460e-001	-7.912328e+000	-6.809770e+000
3.060976326636551e-001	-7.525008e+000	-6.806223e+000
3.071139047737643e-001	-7.137657e+000	-6.802029e+000
