time	V(n001)	V(n002)
0.000000000000000e+000	0.000000e+000	0.000000e+000
1.280000014958205e-005	2.010078e-001	1.762442e-006
2.256562514958205e-005	3.541632e-001	7.318644e-004
3.233125014958205e-005	5.069853e-001	1.950566e-002
4.209687514958205e-005	6.593302e-001	8.624701e-002
5.186250014958206e-005	8.110546e-001	2.006573e-001
6.162812514958205e-005	9.620157e-001	3.359859e-001
9.092500014958204e-005	1.408903e+000	7.607062e-001
1.076660715781535e-004	1.660787e+000	1.006042e+000
1.244071430067249e-004	1.906432e+000	1.245899e+000
1.411482144352964e-004	2.145837e+000	1.480276e+000
1.578892858638678e-004	2.379001e+000	1.709175e+000
1.746303572924392e-004	2.605926e+000	1.932594e+000
1.913714287210107e-004	2.826610e+000	2.150534e+000
2.081125001495821e-004	3.041054e+000	2.362995e+000
2.374093751495821e-004	3.398710e+000	2.717213e+000
2.667062501495822e-004	3.721630e+000	3.037137e+000
2.960031251495822e-004	4.009816e+000	3.322765e+000
3.253000001495822e-004	4.263266e+000	3.574097e+000
3.545968751495822e-004	4.481982e+000	3.791134e+000
3.838937501495823e-004	4.665963e+000	3.973876e+000
4.131906251495822e-004	4.815209e+000	4.122323e+000
4.564383930067251e-004	4.948899e+000	4.255053e+000
4.996861608638681e-004	4.994113e+000	4.299948e+000
5.429339287210109e-004	4.950851e+000	4.257007e+000
5.861816965781539e-004	4.819114e+000	4.126229e+000
6.294294644352968e-004	4.598902e+000	3.907616e+000
6.726772322924396e-004	4.290214e+000	3.601167e+000
7.159250001495825e-004	3.893051e+000	3.206881e+000
7.368513394352968e-004	3.675796e+000	2.991218e+000
7.577776787210111e-004	3.445319e+000	2.762819e+000
7.787040180067254e-004	3.201619e+000	2.521684e+000
7.996303572924397e-004	2.944696e+000	2.267814e+000
8.205566965781540e-004	2.674551e+000	2.001208e+000
8.414830358638684e-004	2.391182e+000	1.721867e+000
8.624093751495826e-004	2.094591e+000	1.429791e+000
8.721750001495826e-004	1.953998e+000	1.291370e+000
8.819406251495826e-004	1.811905e+000	1.152200e+000
8.917062501495826e-004	1.668310e+000	1.012281e+000
9.014718751495826e-004	1.523216e+000	8.716124e-001
9.112375001495826e-004	1.376620e+000	7.301952e-001
9.210031251495826e-004	1.228525e+000	5.880291e-001
9.307687501495827e-004	1.078928e+000	4.451138e-001
9.405343751495827e-004	9.286600e-001	3.053877e-001
9.503000001495827e-004	7.775176e-001	1.724498e-001
9.600656251495827e-004	6.256434e-001	6.667504e-002
9.698312501495827e-004	4.731804e-001	1.260029e-002
9.795968751495827e-004	3.202721e-001	2.143521e-004
9.893625001495827e-004	1.670624e-001	5.997538e-007
1.018659375149583e-003	-2.929330e-001	-3.028527e-010
1.034005357292440e-003	-5.345080e-001	-5.443759e-010
1.049351339435297e-003	-7.734706e-001	-7.832863e-010
1.064697321578154e-003	-1.009821e+000	-1.019584e-009
1.080043303721011e-003	-1.243559e+000	-1.253268e-009
1.095389285863869e-003	-1.474684e+000	-1.484340e-009
1.110735268006726e-003	-1.703197e+000	-1.712798e-009
1.126081250149583e-003	-1.929098e+000	-1.938644e-009
1.151192857292440e-003	-2.291541e+000	-2.301002e-009
1.176304464435297e-003	-2.634747e+000	-2.644128e-009
1.201416071578154e-003	-2.958716e+000	-2.968020e-009
1.226527678721012e-003	-3.263446e+000	-3.272679e-009
1.251639285863869e-003	-3.548939e+000	-3.558104e-009
1.276750893006726e-003	-3.815195e+000	-3.824297e-009
1.301862500149583e-003	-4.062212e+000	-4.071256e-009
1.361851339435297e-003	-4.540364e+000	-4.549296e-009
1.421840178721012e-003	-4.848296e+000	-4.857155e-009
1.481829018006726e-003	-4.986006e+000	-4.994834e-009
1.541817857292440e-003	-4.953496e+000	-4.962331e-009
1.601806696578155e-003	-4.750765e+000	-4.759647e-009
1.661795535863869e-003	-4.377813e+000	-4.386782e-009
1.721784375149583e-003	-3.834640e+000	-3.843737e-009
1.745500893006726e-003	-3.581045e+000	-3.590202e-009
1.769217410863869e-003	-3.311578e+000	-3.320798e-009
1.792933928721012e-003	-3.026239e+000	-3.035527e-009
1.816650446578155e-003	-2.725028e+000	-2.734387e-009
1.840366964435298e-003	-2.407945e+000	-2.417378e-009
1.864083482292441e-003	-2.074990e+000	-2.084502e-009
1.887800000149584e-003	-1.726163e+000	-1.735757e-009
1.901750893006726e-003	-1.517879e+000	-1.527544e-009
1.915701785863869e-003	-1.307700e+000	-1.317422e-009
1.929652678721012e-003	-1.095625e+000	-1.105392e-009
1.943603571578155e-003	-8.816550e-001	-8.914523e-010
1.957554464435297e-003	-6.657897e-001	-6.756041e-010
1.971505357292440e-003	-4.480291e-001	-4.578472e-010
1.985456250149583e-003	-2.283732e-001	-2.381814e-010
2.004987500149583e-003	7.834026e-002	1.956643e-008
2.014753125149582e-003	2.316586e-001	7.247874e-006
2.024518750149582e-003	3.847589e-001	1.971106e-003
2.034284375149582e-003	5.374970e-001	2.775934e-002
2.044050000149582e-003	6.897293e-001	1.058319e-001
2.053815625149582e-003	8.413125e-001	2.270190e-001
2.063581250149581e-003	9.921038e-001	3.639014e-001
2.071951785863867e-003	1.120834e+000	4.856026e-001
2.080322321578153e-003	1.248570e+000	6.071174e-001
2.088692857292438e-003	1.375313e+000	7.284458e-001
2.097063393006723e-003	1.501062e+000	8.495879e-001
2.105433928721009e-003	1.625817e+000	9.705437e-001
2.113804464435294e-003	1.749578e+000	1.091313e+000
2.122175000149580e-003	1.872345e+000	1.211896e+000
2.143101339435294e-003	2.175826e+000	1.510115e+000
2.164027678721008e-003	2.466920e+000	1.796539e+000
2.184954018006721e-003	2.745628e+000	2.071169e+000
2.205880357292436e-003	3.011950e+000	2.334005e+000
2.226806696578149e-003	3.265885e+000	2.585047e+000
2.247733035863863e-003	3.507434e+000	2.824294e+000
2.268659375149577e-003	3.736596e+000	3.051747e+000
2.307721875149576e-003	4.123064e+000	3.435288e+000
2.346784375149575e-003	4.438792e+000	3.748639e+000
2.385846875149574e-003	4.683781e+000	3.991801e+000
2.424909375149574e-003	4.858029e+000	4.164773e+000
2.463971875149573e-003	4.961539e+000	4.267555e+000
2.503034375149572e-003	4.994308e+000	4.300149e+000
2.542096875149571e-003	4.956338e+000	4.262552e+000
2.574183928720999e-003	4.859423e+000	4.166090e+000
2.606270982292427e-003	4.718091e+000	4.025657e+000
2.638358035863855e-003	4.532343e+000	3.841256e+000
2.670445089435283e-003	4.302179e+000	3.612884e+000
2.702532143006711e-003	4.027599e+000	3.340544e+000
2.734619196578139e-003	3.708603e+000	3.024233e+000
2.766706250149566e-003	3.345191e+000	2.663954e+000
2.784842410863852e-003	3.126190e+000	2.446819e+000
2.802978571578137e-003	2.898966e+000	2.222090e+000
2.821114732292422e-003	2.663518e+000	1.989766e+000
2.839250893006707e-003	2.419848e+000	1.749848e+000
2.857387053720993e-003	2.167954e+000	1.502335e+000
2.875523214435278e-003	1.907836e+000	1.247227e+000
2.893659375149564e-003	1.639496e+000	9.845251e-001
2.932721875149563e-003	1.048951e+000	4.169177e-001
2.942487500149563e-003	8.984969e-001	2.779527e-001
2.952253125149562e-003	7.471967e-001	1.479516e-001
2.962018750149562e-003	5.951934e-001	5.089140e-002
2.971784375149562e-003	4.426298e-001	7.737648e-003
2.981550000149562e-003	2.896497e-001	6.728875e-005
2.991315625149562e-003	1.363969e-001	1.836568e-007
3.010846875149561e-003	-1.703493e-001	-1.790059e-010
3.023402678720989e-003	-3.680344e-001	-3.772246e-010
3.035958482292418e-003	-5.643894e-001	-5.739822e-010
3.048514285863846e-003	-7.594142e-001	-7.692787e-010
3.061070089435274e-003	-9.531089e-001	-9.631140e-010
3.073625893006702e-003	-1.145473e+000	-1.155488e-009
3.086181696578131e-003	-1.336508e+000	-1.346401e-009
3.098737500149559e-003	-1.526212e+000	-1.535853e-009
3.122454018006701e-003	-1.880830e+000	-1.890387e-009
3.146170535863844e-003	-2.220543e+000	-2.230020e-009
3.169887053720986e-003	-2.545352e+000	-2.554753e-009
3.193603571578129e-003	-2.855256e+000	-2.864584e-009
3.217320089435271e-003	-3.150257e+000	-3.159515e-009
3.241036607292414e-003	-3.430353e+000	-3.439545e-009
3.264753125149556e-003	-3.695544e+000	-3.704675e-009
3.308000893006697e-003	-4.127527e+000	-4.136556e-009
3.351248660863840e-003	-4.472302e+000	-4.481249e-009
3.394496428720981e-003	-4.729867e+000	-4.738754e-009
3.437744196578124e-003	-4.900224e+000	-4.909071e-009
3.480991964435265e-003	-4.983371e+000	-4.992199e-009
3.524239732292408e-003	-4.979311e+000	-4.988139e-009
3.567487500149549e-003	-4.888041e+000	-4.896891e-009
3.599574553720977e-003	-4.751041e+000	-4.759923e-009
3.631661607292405e-003	-4.571632e+000	-4.580556e-009
3.663748660863833e-003	-4.349813e+000	-4.358790e-009
3.695835714435261e-003	-4.085585e+000	-4.094624e-009
3.727922768006689e-003	-3.778947e+000	-3.788058e-009
3.760009821578117e-003	-3.429900e+000	-3.439093e-009
3.792096875149544e-003	-3.038443e+000	-3.047728e-009
3.811628125149544e-003	-2.786656e+000	-2.796001e-009
3.831159375149544e-003	-2.526914e+000	-2.536319e-009
3.850690625149543e-003	-2.259215e+000	-2.268684e-009
3.870221875149543e-003	-1.983561e+000	-1.993094e-009
3.889753125149543e-003	-1.699952e+000	-1.709551e-009
3.909284375149542e-003	-1.408386e+000	-1.418055e-009
3.928815625149542e-003	-1.108865e+000	-1.118604e-009
3.938581250149542e-003	-9.584305e-001	-9.949049e-010
3.948346875149542e-003	-8.074510e-001	-8.536612e-010
3.958112500149541e-003	-6.559263e-001	-6.948726e-010
3.967878125149541e-003	-5.038562e-001	-5.185392e-010
3.977643750149541e-003	-3.512409e-001	-3.246609e-010
3.987409375149541e-003	-1.980803e-001	-1.132377e-010
3.997175000149541e-003	-4.437441e-002	1.157302e-010
4.006940625149540e-003	1.090144e-001	6.385157e-008
4.016706250149540e-003	2.623007e-001	2.358244e-005
4.026471875149540e-003	4.153401e-001	4.422758e-003
4.036237500149540e-003	5.679886e-001	3.873875e-002
4.046003125149539e-003	7.201025e-001	1.272958e-001
4.055768750149539e-003	8.715387e-001	2.537696e-001
4.065534375149539e-003	1.022155e+000	3.918265e-001
4.073904910863824e-003	1.150712e+000	5.137784e-001
4.082275446578110e-003	1.278254e+000	6.354551e-001
4.090645982292395e-003	1.404783e+000	7.568566e-001
4.099016518006681e-003	1.530298e+000	8.779829e-001
4.107387053720967e-003	1.654798e+000	9.988341e-001
4.115757589435253e-003	1.778285e+000	1.119410e+000
4.124128125149538e-003	1.900757e+000	1.239711e+000
4.145054464435252e-003	2.203404e+000	1.537202e+000
4.165980803720965e-003	2.493557e+000	1.822776e+000
4.186907143006680e-003	2.771216e+000	2.096433e+000
4.207833482292393e-003	3.036381e+000	2.358172e+000
4.228759821578107e-003	3.289051e+000	2.607994e+000
4.249686160863820e-003	3.529228e+000	2.845899e+000
4.270612500149535e-003	3.756911e+000	3.071887e+000
4.311070089435248e-003	4.153110e+000	3.465112e+000
4.351527678720961e-003	4.473043e+000	3.782653e+000
4.391985268006675e-003	4.716710e+000	4.024510e+000
4.432442857292388e-003	4.884110e+000	4.190683e+000
4.472900446578102e-003	4.975243e+000	4.281172e+000
4.513358035863816e-003	4.990110e+000	4.295978e+000
4.553815625149529e-003	4.928711e+000	4.235099e+000
4.584507589435243e-003	4.819855e+000	4.126786e+000
4.615199553720956e-003	4.670790e+000	3.978682e+000
4.645891518006670e-003	4.481516e+000	3.790788e+000
4.676583482292383e-003	4.252032e+000	3.563105e+000
4.707275446578097e-003	3.982339e+000	3.295632e+000
4.737967410863811e-003	3.672437e+000	2.988369e+000
4.768659375149524e-003	3.322326e+000	2.641315e+000
4.786795535863809e-003	3.102190e+000	2.423059e+000
4.804931696578095e-003	2.873916e+000	2.197314e+000
4.823067857292380e-003	2.637505e+000	1.964082e+000
4.841204018006666e-003	2.392956e+000	1.723363e+000
4.859340178720951e-003	2.140269e+000	1.475156e+000
4.877476339435236e-003	1.879444e+000	1.219461e+000
4.895612500149521e-003	1.610482e+000	9.562788e-001
4.934675000149521e-003	1.018935e+000	3.888110e-001
4.944440625149520e-003	8.683000e-001	2.508041e-001
4.954206250149520e-003	7.168478e-001	1.248647e-001
4.963971875149520e-003	5.647209e-001	3.741765e-002
4.973737500149520e-003	4.120625e-001	4.094120e-003
4.983503125149520e-003	2.590163e-001	2.078638e-005
4.993268750149519e-003	1.057263e-001	5.624620e-008
5.022565625149519e-003	-3.541632e-001	-3.640788e-010
5.037911607292375e-003	-5.954721e-001	-6.053314e-010
5.053257589435233e-003	-8.340303e-001	-8.438339e-010
5.068603571578089e-003	-1.069838e+000	-1.079586e-009
5.083949553720946e-003	-1.302894e+000	-1.312588e-009
5.099295535863802e-003	-1.533200e+000	-1.542840e-009
5.114641518006660e-003	-1.760755e+000	-1.770341e-009
5.129987500149516e-003	-1.985559e+000	-1.995092e-009
5.156494196578087e-003	-2.366026e+000	-2.375469e-009
5.183000893006658e-003	-2.724340e+000	-2.733699e-009
5.209507589435229e-003	-3.060503e+000	-3.069783e-009
5.236014285863799e-003	-3.374515e+000	-3.383721e-009
5.262520982292370e-003	-3.666375e+000	-3.675512e-009
5.289027678720941e-003	-3.936083e+000	-3.945157e-009
5.315534375149512e-003	-4.183640e+000	-4.192655e-009
5.372733035863797e-003	-4.607914e+000	-4.616829e-009
5.429931696578082e-003	-4.876925e+000	-4.885778e-009
5.487130357292366e-003	-4.990675e+000	-4.999501e-009
5.544329018006651e-003	-4.949162e+000	-4.957998e-009
5.601527678720935e-003	-4.752387e+000	-4.761269e-009
5.658726339435220e-003	-4.400350e+000	-4.409315e-009
5.715925000149504e-003	-3.893051e+000	-3.902135e-009
5.739641518006646e-003	-3.644646e+000	-3.653789e-009
5.763358035863788e-003	-3.379957e+000	-3.389162e-009
5.787074553720931e-003	-3.098984e+000	-3.108255e-009
5.810791071578073e-003	-2.801726e+000	-2.811067e-009
5.834507589435216e-003	-2.488184e+000	-2.497599e-009
5.858224107292358e-003	-2.158357e+000	-2.167849e-009
5.881940625149500e-003	-1.812246e+000	-1.821820e-009
5.895891518006643e-003	-1.605311e+000	-1.614933e-009
5.909842410863785e-003	-1.396307e+000	-1.405979e-009
5.923793303720928e-003	-1.185236e+000	-1.194958e-009
5.937744196578071e-003	-9.720967e-001	-9.818681e-010
5.951695089435214e-003	-7.568897e-001	-7.667108e-010
5.965645982292355e-003	-5.396149e-001	-5.494857e-010
5.979596875149498e-003	-3.202721e-001	-3.301928e-010
5.999128125149498e-003	-1.369536e-002	5.330671e-010
6.008893750149498e-003	1.396845e-001	2.084975e-007
6.018659375149497e-003	2.929330e-001	7.625056e-005
6.028425000149497e-003	4.459057e-001	8.201974e-003
6.038190625149497e-003	5.984587e-001	5.245439e-002
6.047956250149497e-003	7.504485e-001	1.504982e-001
6.057721875149497e-003	9.017320e-001	2.809380e-001
6.067487500149496e-003	1.052167e+000	4.199617e-001
6.077253125149496e-003	1.201955e+000	5.627256e-001
6.087018750149496e-003	1.350268e+000	7.048243e-001
6.096784375149496e-003	1.497104e+000	8.462579e-001
6.106550000149496e-003	1.642464e+000	9.870264e-001
6.116315625149495e-003	1.786349e+000	1.127130e+000
6.126081250149495e-003	1.928757e+000	1.266568e+000
6.135846875149495e-003	2.069689e+000	1.405341e+000
6.158168303720923e-003	2.386957e+000	1.717774e+000
6.180489732292351e-003	2.689002e+000	2.015526e+000
6.202811160863779e-003	2.975824e+000	2.298598e+000
6.225132589435208e-003	3.247422e+000	2.566988e+000
6.247454018006636e-003	3.503797e+000	2.820697e+000
6.269775446578064e-003	3.744949e+000	3.059726e+000
6.292096875149492e-003	3.970877e+000	3.284073e+000
6.352085714435205e-003	4.476222e+000	3.785784e+000
6.412074553720918e-003	4.811232e+000	4.118387e+000
6.472063393006631e-003	4.975907e+000	4.281881e+000
6.532052232292343e-003	4.970248e+000	4.276268e+000
6.592041071578057e-003	4.794253e+000	4.101546e+000
6.652029910863770e-003	4.447924e+000	3.757716e+000
6.712018750149483e-003	3.931260e+000	3.244778e+000
6.734340178720911e-003	3.701814e+000	3.016943e+000
6.756661607292339e-003	3.457394e+000	2.774703e+000
6.778983035863767e-003	3.197998e+000	2.518059e+000
6.801304464435195e-003	2.923628e+000	2.247009e+000
6.823625893006623e-003	2.634283e+000	1.961554e+000
6.845947321578051e-003	2.329963e+000	1.661694e+000
6.868268750149479e-003	2.010668e+000	1.347430e+000
6.876639285863764e-003	1.889388e+000	1.228265e+000
6.885009821578051e-003	1.767015e+000	1.108549e+000
6.893380357292336e-003	1.643549e+000	9.882823e-001
6.901750893006622e-003	1.518991e+000	8.674650e-001
6.910121428720907e-003	1.393340e+000	7.460970e-001
6.918491964435193e-003	1.266596e+000	6.241782e-001
6.926862500149478e-003	1.138759e+000	5.017087e-001
6.936628125149478e-003	9.888802e-001	3.608842e-001
6.946393750149478e-003	8.380703e-001	2.241695e-001
6.956159375149477e-003	6.864718e-001	1.036471e-001
6.965925000149477e-003	5.342271e-001	2.675276e-002
6.975690625149477e-003	3.814797e-001	1.785578e-003
6.985456250149477e-003	2.283732e-001	6.379888e-006
6.995221875149477e-003	7.505179e-002	1.723738e-008
7.024518750149476e-003	-3.847589e-001	-3.946680e-010
7.039864732292333e-003	-6.259212e-001	-6.357737e-010
7.055210714435190e-003	-8.642636e-001	-8.740602e-010
7.070556696578047e-003	-1.099786e+000	-1.109527e-009
7.085902678720903e-003	-1.332489e+000	-1.342176e-009
7.101248660863760e-003	-1.562372e+000	-1.572004e-009
7.116594643006617e-003	-1.789435e+000	-1.799014e-009
7.131940625149474e-003	-2.013679e+000	-2.023205e-009
7.158447321578045e-003	-2.393000e+000	-2.402437e-009
7.184954018006616e-003	-2.750008e+000	-2.759361e-009
7.211460714435187e-003	-3.084704e+000	-3.093978e-009
7.237967410863757e-003	-3.397087e+000	-3.406288e-009
7.264474107292328e-003	-3.687158e+000	-3.696290e-009
7.290980803720899e-003	-3.954916e+000	-3.963986e-009
7.317487500149470e-003	-4.200361e+000	-4.209373e-009
7.374686160863754e-003	-4.619336e+000	-4.628249e-009
7.431884821578039e-003	-4.883098e+000	-4.891949e-009
7.489083482292323e-003	-4.991648e+000	-5.000474e-009
7.546282143006608e-003	-4.944986e+000	-4.953822e-009
7.603480803720892e-003	-4.743112e+000	-4.751995e-009
7.660679464435177e-003	-4.386025e+000	-4.394993e-009
7.717878125149461e-003	-3.873726e+000	-3.882815e-009
7.741594643006604e-003	-3.623582e+000	-3.632729e-009
7.765311160863746e-003	-3.357290e+000	-3.366500e-009
7.789027678720888e-003	-3.074851e+000	-3.084127e-009
7.812744196578030e-003	-2.776264e+000	-2.785611e-009
7.836460714435172e-003	-2.461530e+000	-2.470951e-009
7.860177232292315e-003	-2.130648e+000	-2.140147e-009
7.883893750149458e-003	-1.783619e+000	-1.793199e-009
7.897844643006600e-003	-1.576226e+000	-1.585857e-009
7.911795535863743e-003	-1.366822e+000	-1.376504e-009
7.925746428720886e-003	-1.155409e+000	-1.165139e-009
7.939697321578027e-003	-9.419846e-001	-9.517634e-010
7.953648214435170e-003	-7.265500e-001	-7.363764e-010
7.967599107292313e-003	-5.091050e-001	-5.189781e-010
7.981550000149456e-003	-2.896497e-001	-2.995686e-010
8.010846875149455e-003	1.703493e-001	6.808611e-007
8.020612500149455e-003	3.235542e-001	2.422550e-004
8.030378125149455e-003	4.764544e-001	1.319233e-002
8.040143750149454e-003	6.289063e-001	6.847733e-002
8.049909375149454e-003	7.807663e-001	1.751660e-001
8.059675000149454e-003	9.318914e-001	3.084112e-001
8.079206250149454e-003	1.231369e+000	5.899181e-001
8.093157143006596e-003	1.443484e+000	7.950502e-001
8.107108035863739e-003	1.651848e+000	9.972478e-001
8.121058928720882e-003	1.856460e+000	1.196511e+000
8.135009821578023e-003	2.057320e+000	1.392840e+000
8.148960714435166e-003	2.254429e+000	1.586234e+000
8.162911607292309e-003	2.447787e+000	1.776694e+000
8.176862500149451e-003	2.637393e+000	1.964219e+000
8.203369196578022e-003	2.986527e+000	2.309402e+000
8.229875893006593e-003	3.309890e+000	2.629278e+000
8.256382589435164e-003	3.607480e+000	2.923849e+000
8.282889285863735e-003	3.879298e+000	3.193114e+000
8.309395982292306e-003	4.125344e+000	3.437073e+000
8.335902678720877e-003	4.345618e+000	3.655726e+000
8.362409375149447e-003	4.540120e+000	3.849073e+000
8.411237500149446e-003	4.805295e+000	4.112432e+000
8.460065625149445e-003	4.956640e+000	4.262754e+000
8.508893750149444e-003	4.994153e+000	4.300039e+000
8.557721875149443e-003	4.917836e+000	4.224287e+000
8.606550000149442e-003	4.727687e+000	4.035499e+000
8.655378125149441e-003	4.423708e+000	3.733674e+000
8.704206250149440e-003	4.005897e+000	3.318813e+000
8.726527678720869e-003	3.783161e+000	3.097629e+000
8.748849107292296e-003	3.544980e+000	2.861521e+000
