time	V(vin)	V(vout)	I(R1)
0.000000000000000e+000	0.000000e+000	0.000000e+000	0.000000e+000
1.428571428571429e-010	7.142857e-001	-3.337555e-012	-5.624446e-010
2.857142857142858e-010	1.428571e+000	-1.538134e-012	-2.130384e-009
4.285714285714288e-010	2.142857e+000	5.398265e-012	-4.703817e-009
5.714285714285716e-010	2.857143e+000	1.747164e-011	-8.282744e-009
7.142857142857145e-010	3.571429e+000	3.468199e-011	-1.286717e-008
8.571428571428575e-010	4.285714e+000	5.702932e-011	-1.845708e-008
1.000000000000000e-009	5.000000e+000	8.451363e-011	-2.505249e-008
9.105600064203234e-007	5.000000e+000	2.604139e-004	-4.548745e-005
1.820120012840647e-006	5.000000e+000	1.034624e-003	-9.087449e-005
2.729680019260970e-006	5.000000e+000	2.322631e-003	-1.361862e-004
3.639240025681294e-006	5.000000e+000	4.124434e-003	-1.814225e-004
4.548800032101617e-006	5.000000e+000	6.440034e-003	-2.265835e-004
5.458360038521940e-006	5.000000e+000	9.269430e-003	-2.716692e-004
6.367920044942261e-006	5.000000e+000	1.261262e-002	-3.166795e-004
1.273485223384393e-005	5.000000e+000	5.011116e-002	-6.282860e-004
2.546871661164726e-005	5.000000e+000	1.965192e-001	-1.226900e-003
5.093644536725393e-005	5.000000e+000	6.960751e-001	-2.317607e-003
8.081876790620677e-005	5.000000e+000	1.575840e+000	-3.353468e-003
1.195012487076433e-004	5.000000e+000	3.064828e+000	-4.205444e-003
1.596678451792632e-004	5.000000e+000	4.798142e+000	-4.426472e-003
2.062733619959558e-004	5.000000e+000	6.716284e+000	-3.839402e-003
2.549552160829573e-004	5.000000e+000	8.322568e+000	-2.499424e-003
2.868602837342827e-004	5.000000e+000	9.008404e+000	-1.310831e-003
3.086510781614771e-004	5.000000e+000	9.218515e+000	-4.019212e-004
3.300101395046567e-004	5.000000e+000	9.213299e+000	4.983931e-004
3.495266006669642e-004	5.000000e+000	9.017612e+000	1.271411e-003
3.836550215789028e-004	5.000000e+000	8.334290e+000	2.435083e-003
4.193432998314793e-004	5.000000e+000	7.287664e+000	3.288262e-003
4.688263276263913e-004	5.000000e+000	5.514826e+000	3.762742e-003
5.147575919959502e-004	5.000000e+000	3.838292e+000	3.491128e-003
5.534901470057624e-004	5.000000e+000	2.621994e+000	2.713834e-003
5.902757566222935e-004	5.000000e+000	1.799948e+000	1.621028e-003
6.204894927847311e-004	5.000000e+000	1.422905e+000	5.742325e-004
6.400967235520200e-004	5.000000e+000	1.370168e+000	-1.330101e-004
6.649745423968413e-004	5.000000e+000	1.527634e+000	-9.984300e-004
6.922104573096783e-004	5.000000e+000	1.940036e+000	-1.829170e-003
7.311956320021268e-004	5.000000e+000	2.863654e+000	-2.718119e-003
7.734633544906202e-004	5.000000e+000	4.121946e+000	-3.186231e-003
8.256447516782686e-004	5.000000e+000	5.749897e+000	-3.023343e-003
8.758212835344076e-004	5.000000e+000	7.102649e+000	-2.218013e-003
9.131626898792415e-004	5.000000e+000	7.814354e+000	-1.274038e-003
9.379920407865622e-004	5.000000e+000	8.072329e+000	-5.310415e-004
9.568244384271275e-004	5.000000e+000	8.116447e+000	5.387060e-005
9.822511366963116e-004	5.000000e+000	7.990909e+000	8.165686e-004
1.008707078104435e-003	5.000000e+000	7.660311e+000	1.516514e-003
1.047827881237514e-003	5.000000e+000	6.880487e+000	2.301050e-003
1.089162885569509e-003	5.000000e+000	5.835309e+000	2.711899e-003
1.144851405064865e-003	5.000000e+000	4.352242e+000	2.573435e-003
1.197116089011415e-003	5.000000e+000	3.169020e+000	1.844050e-003
1.239472167383767e-003	5.000000e+000	2.518052e+000	9.077335e-004
1.263656641055681e-003	5.000000e+000	2.337682e+000	2.813244e-004
1.282178257159217e-003	5.000000e+000	2.325835e+000	-2.129920e-004
1.301946195731810e-003	5.000000e+000	2.432600e+000	-7.155847e-004
1.332808778542542e-003	5.000000e+000	2.788702e+000	-1.404260e-003
1.368872896543963e-003	5.000000e+000	3.423286e+000	-1.998242e-003
1.415038876925045e-003	5.000000e+000	4.442943e+000	-2.347224e-003
1.467659680049154e-003	5.000000e+000	5.627323e+000	-2.173449e-003
1.526248137514210e-003	5.000000e+000	6.731982e+000	-1.412689e-003
1.559784847470485e-003	5.000000e+000	7.153728e+000	-7.618460e-004
1.581561904964832e-003	5.000000e+000	7.281991e+000	-2.719455e-004
1.602006665886133e-003	5.000000e+000	7.291968e+000	1.964816e-004
1.621857606096286e-003	5.000000e+000	7.198311e+000	6.283316e-004
1.653794291963706e-003	5.000000e+000	6.875495e+000	1.235513e-003
1.689467177768947e-003	5.000000e+000	6.330035e+000	1.730138e-003
1.736636608316412e-003	5.000000e+000	5.430623e+000	2.018522e-003
1.789107310653763e-003	5.000000e+000	4.410562e+000	1.862407e-003
1.840912858706482e-003	5.000000e+000	3.564228e+000	1.284155e-003
1.876552767414807e-003	5.000000e+000	3.170365e+000	6.920370e-004
1.899740099801574e-003	5.000000e+000	3.044770e+000	2.469641e-004
1.920047123519047e-003	5.000000e+000	3.032574e+000	-1.521139e-004
1.940685703494460e-003	5.000000e+000	3.113714e+000	-5.382797e-004
1.971674420617680e-003	5.000000e+000	3.379468e+000	-1.045635e-003
2.007864393770600e-003	5.000000e+000	3.851865e+000	-1.480476e-003
2.054052016216835e-003	5.000000e+000	4.605223e+000	-1.730237e-003
2.107024156253583e-003	5.000000e+000	5.481560e+000	-1.592245e-003
2.165650062595478e-003	5.000000e+000	6.293140e+000	-1.025559e-003
2.197044261237882e-003	5.000000e+000	6.583738e+000	-5.755596e-004
2.218545456541465e-003	5.000000e+000	6.679093e+000	-2.189193e-004
2.238574330625506e-003	5.000000e+000	6.689463e+000	1.192226e-004
2.259637981912458e-003	5.000000e+000	6.619993e+000	4.580764e-004
2.290257061631049e-003	5.000000e+000	6.396760e+000	8.896318e-004
2.326633642563205e-003	5.000000e+000	5.990952e+000	1.267399e-003
2.372352077243061e-003	5.000000e+000	5.352203e+000	1.484054e-003
2.425455557547690e-003	5.000000e+000	4.594082e+000	1.374028e-003
2.481508632110593e-003	5.000000e+000	3.918930e+000	9.184453e-004
2.514079165927637e-003	5.000000e+000	3.652654e+000	5.212355e-004
2.536389931142692e-003	5.000000e+000	3.561598e+000	2.050877e-004
2.556048328530046e-003	5.000000e+000	3.549269e+000	-7.970093e-005
2.578386887159638e-003	5.000000e+000	3.608961e+000	-3.893045e-004
2.607650979459484e-003	5.000000e+000	3.788125e+000	-7.454797e-004
2.644817560631286e-003	5.000000e+000	4.140519e+000	-1.082054e-003
2.689097772183945e-003	5.000000e+000	4.668517e+000	-1.270701e-003
2.742933117388710e-003	5.000000e+000	5.332007e+000	-1.187610e-003
2.796875902068322e-003	5.000000e+000	5.903607e+000	-8.268197e-004
2.827102744542987e-003	5.000000e+000	6.129033e+000	-5.168828e-004
2.849985042534375e-003	5.000000e+000	6.224011e+000	-2.412483e-004
2.868166963614643e-003	5.000000e+000	6.246197e+000	-1.512245e-005
2.893041502752854e-003	5.000000e+000	6.207222e+000	2.859802e-004
2.918073590777743e-003	5.000000e+000	6.093273e+000	5.572601e-004
2.956502963011726e-003	5.000000e+000	5.802720e+000	8.831729e-004
2.996472899053147e-003	5.000000e+000	5.408344e+000	1.068752e-003
3.050876737462762e-003	5.000000e+000	4.836169e+000	1.039368e-003
3.117826707728453e-003	5.000000e+000	4.224718e+000	6.875767e-004
3.151414059939494e-003	5.000000e+000	4.012418e+000	3.974097e-004
3.173307048710793e-003	5.000000e+000	3.942229e+000	1.697039e-004
3.192362062350424e-003	5.000000e+000	3.930327e+000	-3.378735e-005
3.216356497534465e-003	5.000000e+000	3.973308e+000	-2.801646e-004
3.243996600545465e-003	5.000000e+000	4.093756e+000	-5.303439e-004
3.282130425119311e-003	5.000000e+000	4.356094e+000	-7.905779e-004
3.324658555287749e-003	5.000000e+000	4.726657e+000	-9.326721e-004
3.379336416264607e-003	5.000000e+000	5.225117e+000	-8.816104e-004
3.433009149757238e-003	5.000000e+000	5.650820e+000	-6.275282e-004
3.462974690794634e-003	5.000000e+000	5.821110e+000	-4.046511e-004
3.486163823812295e-003	5.000000e+000	5.896768e+000	-2.001341e-004
3.505207220992939e-003	5.000000e+000	5.917809e+000	-2.567916e-005
3.529431218073541e-003	5.000000e+000	5.894780e+000	1.915518e-004
3.553765078061332e-003	5.000000e+000	5.818134e+000	3.887706e-004
3.591284605127598e-003	5.000000e+000	5.616598e+000	6.312270e-004
3.630690140676400e-003	5.000000e+000	5.335068e+000	7.785878e-004
3.683939330981462e-003	5.000000e+000	4.919352e+000	7.793513e-004
3.747737199198702e-003	5.000000e+000	4.470461e+000	5.595514e-004
3.779446128697524e-003	5.000000e+000	4.306137e+000	3.680415e-004
3.802761433823754e-003	5.000000e+000	4.235493e+000	1.933626e-004
3.822367300913968e-003	5.000000e+000	4.212691e+000	3.929223e-005
3.845654850045968e-003	5.000000e+000	4.226176e+000	-1.412009e-004
3.868773276391045e-003	5.000000e+000	4.282770e+000	-3.052273e-004
3.905186395728647e-003	5.000000e+000	4.441272e+000	-5.165081e-004
3.943605681316364e-003	5.000000e+000	4.670039e+000	-6.546919e-004
3.995476870543206e-003	5.000000e+000	5.019207e+000	-6.815729e-004
4.055460770977360e-003	5.000000e+000	5.399002e+000	-5.354916e-004
4.086522406057717e-003	5.000000e+000	5.552561e+000	-3.869085e-004
4.113323990387320e-003	5.000000e+000	5.637555e+000	-2.207433e-004
4.135809334942394e-003	5.000000e+000	5.673221e+000	-7.054090e-005
4.154824221185170e-003	5.000000e+000	5.675303e+000	5.771809e-005
4.174655509755065e-003	5.000000e+000	5.647447e+000	1.847938e-004
4.206136994961670e-003	5.000000e+000	5.554072e+000	3.612363e-004
4.242139849536555e-003	5.000000e+000	5.392366e+000	5.088437e-004
4.288876209144163e-003	5.000000e+000	5.130364e+000	5.940387e-004
4.341598827698725e-003	5.000000e+000	4.824440e+000	5.544673e-004
4.384066754277907e-003	5.000000e+000	4.608163e+000	4.252575e-004
4.412523203398977e-003	5.000000e+000	4.500715e+000	2.929452e-004
4.437709715853246e-003	5.000000e+000	4.441758e+000	1.549235e-004
4.458794143198926e-003	5.000000e+000	4.421285e+000	3.334708e-005
4.481870258107722e-003	5.000000e+000	4.429365e+000	-9.850776e-005
4.504617535034158e-003	5.000000e+000	4.468910e+000	-2.180135e-004
4.540471597559906e-003	5.000000e+000	4.581447e+000	-3.732793e-004
4.578644746521176e-003	5.000000e+000	4.746908e+000	-4.779597e-004
4.629950058776925e-003	5.000000e+000	5.001015e+000	-5.040215e-004
4.688955073943932e-003	5.000000e+000	5.280544e+000	-4.072074e-004
4.717724173155290e-003	5.000000e+000	5.389056e+000	-3.095925e-004
4.747157506640457e-003	5.000000e+000	5.462411e+000	-1.775459e-004
4.771254504518019e-003	5.000000e+000	5.493588e+000	-5.999691e-005
4.791943664262193e-003	5.000000e+000	5.496333e+000	4.256528e-005
4.812389645474063e-003	5.000000e+000	5.475304e+000	1.388728e-004
4.843889336798079e-003	5.000000e+000	5.405906e+000	2.682874e-004
4.880017654845855e-003	5.000000e+000	5.285735e+000	3.763229e-004
4.926776552797480e-003	5.000000e+000	5.092435e+000	4.373487e-004
4.979841876213170e-003	5.000000e+000	4.865853e+000	4.065294e-004
5.020980830860083e-003	5.000000e+000	4.712085e+000	3.136138e-004
5.049877876218268e-003	5.000000e+000	4.632027e+000	2.144148e-004
5.074806005990474e-003	5.000000e+000	4.589110e+000	1.138969e-004
5.095763041156812e-003	5.000000e+000	4.574149e+000	2.495494e-005
5.118789154793979e-003	5.000000e+000	4.579979e+000	-7.188650e-005
5.141464949433622e-003	5.000000e+000	4.608835e+000	-1.596194e-004
5.177292765167752e-003	5.000000e+000	4.691333e+000	-2.740106e-004
5.215402191709314e-003	5.000000e+000	4.812683e+000	-3.512733e-004
5.266666681799818e-003	5.000000e+000	4.999504e+000	-3.710855e-004
5.325502633711720e-003	5.000000e+000	5.205042e+000	-3.009653e-004
5.353970355148348e-003	5.000000e+000	5.284424e+000	-2.302609e-004
5.383779316513486e-003	5.000000e+000	5.339554e+000	-1.320987e-004
5.408100183028346e-003	5.000000e+000	5.363069e+000	-4.489405e-005
5.428727336114047e-003	5.000000e+000	5.365261e+000	3.034290e-005
5.449398778257168e-003	5.000000e+000	5.349760e+000	1.020418e-004
5.480636677970711e-003	5.000000e+000	5.299306e+000	1.965876e-004
5.516904952599098e-003	5.000000e+000	5.210689e+000	2.766403e-004
5.563384893757825e-003	5.000000e+000	5.069437e+000	3.217152e-004
5.616578991990639e-003	5.000000e+000	4.902349e+000	2.992789e-004
5.658314054764973e-003	5.000000e+000	4.787547e+000	2.300779e-004
5.686972320651819e-003	5.000000e+000	4.729170e+000	1.577059e-004
5.711986870011623e-003	5.000000e+000	4.697579e+000	8.344631e-005
5.732964998177248e-003	5.000000e+000	4.686638e+000	1.793600e-005
5.756050444257076e-003	5.000000e+000	4.691068e+000	-5.347834e-005
5.778816566289630e-003	5.000000e+000	4.712535e+000	-1.182169e-004
5.814702400657583e-003	5.000000e+000	4.773584e+000	-2.022991e-004
5.852886478372549e-003	5.000000e+000	4.863247e+000	-2.588930e-004
5.904222288289721e-003	5.000000e+000	5.000916e+000	-2.728330e-004
5.963273092504088e-003	5.000000e+000	5.152397e+000	-2.202892e-004
5.991605450488656e-003	5.000000e+000	5.210246e+000	-1.682277e-004
6.021319245413422e-003	5.000000e+000	5.250326e+000	-9.604270e-005
6.045540288631770e-003	5.000000e+000	5.267267e+000	-3.208540e-005
6.066299215722555e-003	5.000000e+000	5.268696e+000	2.362732e-005
6.086581868376877e-003	5.000000e+000	5.257320e+000	7.532495e-005
6.118259195767210e-003	5.000000e+000	5.219419e+000	1.457209e-004
6.154296209721319e-003	5.000000e+000	5.154429e+000	2.039221e-004
6.201255258788152e-003	5.000000e+000	5.049247e+000	2.368457e-004
6.254242835086171e-003	5.000000e+000	4.926729e+000	2.200013e-004
6.294924931329667e-003	5.000000e+000	4.844417e+000	1.701545e-004
6.324004487860425e-003	5.000000e+000	4.800806e+000	1.160802e-004
6.349017953586542e-003	5.000000e+000	4.777487e+000	6.148098e-005
6.369954657298725e-003	5.000000e+000	4.769421e+000	1.337208e-005
6.393000072496288e-003	5.000000e+000	4.772623e+000	-3.909746e-005
6.415707445513514e-003	5.000000e+000	4.788313e+000	-8.664311e-005
6.451564891379754e-003	5.000000e+000	4.833091e+000	-1.485631e-004
6.489700739896722e-003	5.000000e+000	4.898897e+000	-1.903152e-004
6.540999244800849e-003	5.000000e+000	5.000120e+000	-2.008530e-004
6.599916487901189e-003	5.000000e+000	5.111468e+000	-1.626099e-004
6.628329412862600e-003	5.000000e+000	5.154281e+000	-1.243171e-004
6.658100309052791e-003	5.000000e+000	5.183987e+000	-7.118144e-005
6.682381503063765e-003	5.000000e+000	5.196612e+000	-2.402684e-005
6.703061585560739e-003	5.000000e+000	5.197745e+000	1.681312e-005
6.723577019970978e-003	5.000000e+000	5.189360e+000	5.532036e-005
6.754989746225410e-003	5.000000e+000	5.161816e+000	1.067533e-004
6.791165128484328e-003	5.000000e+000	5.113899e+000	1.498894e-004
6.837835579812495e-003	5.000000e+000	5.037055e+000	1.742245e-004
6.890946609269473e-003	5.000000e+000	4.946714e+000	1.619795e-004
6.932260243202775e-003	5.000000e+000	4.885192e+000	1.248279e-004
6.961085629181503e-003	5.000000e+000	4.853385e+000	8.540642e-005
6.986038425165328e-003	5.000000e+000	4.836287e+000	4.531352e-005
7.007000835003643e-003	5.000000e+000	4.830339e+000	9.869995e-006
7.030045392782949e-003	5.000000e+000	4.832685e+000	-2.873797e-005
7.052749427616038e-003	5.000000e+000	4.844221e+000	-6.372180e-005
7.088595519943144e-003	5.000000e+000	4.877147e+000	-1.092804e-004
7.126728216388569e-003	5.000000e+000	4.925555e+000	-1.400184e-004
7.178015028018308e-003	5.000000e+000	5.000019e+000	-1.478037e-004
7.236917723542190e-003	5.000000e+000	5.081946e+000	-1.197080e-004
7.265343124167122e-003	5.000000e+000	5.113477e+000	-9.153313e-005
7.295122471621337e-003	5.000000e+000	5.135359e+000	-5.243260e-005
7.319412355590731e-003	5.000000e+000	5.144666e+000	-1.772536e-005
7.340080651550089e-003	5.000000e+000	5.145508e+000	1.230856e-005
7.360630774931464e-003	5.000000e+000	5.139338e+000	4.069427e-005
7.392004450249072e-003	5.000000e+000	5.119107e+000	7.849996e-005
7.428200469083475e-003	5.000000e+000	5.083838e+000	1.102744e-004
7.474828348554960e-003	5.000000e+000	5.027355e+000	1.281924e-004
7.527957809873245e-003	5.000000e+000	4.960860e+000	1.191983e-004
7.569365366892737e-003	5.000000e+000	4.915486e+000	9.180953e-005
7.598153342281521e-003	5.000000e+000	4.892114e+000	6.284138e-005
7.623120019766216e-003	5.000000e+000	4.879532e+000	3.332134e-005
7.644086089489508e-003	5.000000e+000	4.875159e+000	7.236730e-006
7.667139701029928e-003	5.000000e+000	4.876894e+000	-2.118138e-005
7.689857517009317e-003	5.000000e+000	4.885396e+000	-4.693438e-005
7.725712369610306e-003	5.000000e+000	4.909645e+000	-8.045197e-005
7.763856470960976e-003	5.000000e+000	4.945288e+000	-1.030541e-004
7.815154077660126e-003	5.000000e+000	5.000092e+000	-1.087440e-004
7.874089480195440e-003	5.000000e+000	5.060390e+000	-8.801309e-005
7.902494276474728e-003	5.000000e+000	5.083557e+000	-6.727922e-005
7.932259155594755e-003	5.000000e+000	5.099628e+000	-3.851087e-005
7.956533873974631e-003	5.000000e+000	5.106455e+000	-1.298519e-005
7.977222224301649e-003	5.000000e+000	5.107064e+000	9.135771e-006
7.997713189760511e-003	5.000000e+000	5.102525e+000	2.995834e-005
8.029153511660813e-003	5.000000e+000	5.087592e+000	5.782661e-005
8.065314327408580e-003	5.000000e+000	5.061654e+000	8.116437e-005
8.112014855556935e-003	5.000000e+000	5.020017e+000	9.433422e-005
8.165112861608847e-003	5.000000e+000	4.971114e+000	8.769597e-005
8.206360371311625e-003	5.000000e+000	4.937858e+000	6.760769e-005
8.235212164117819e-003	5.000000e+000	4.920619e+000	4.624324e-005
8.260155154821250e-003	5.000000e+000	4.911363e+000	2.454531e-005
8.281114944621313e-003	5.000000e+000	4.908140e+000	5.357311e-006
8.304153137959645e-003	5.000000e+000	4.909406e+000	-1.554146e-005
8.326847473229617e-003	5.000000e+000	4.915645e+000	-3.447715e-005
8.362687418079896e-003	5.000000e+000	4.933461e+000	-5.914700e-005
8.400812087992380e-003	5.000000e+000	4.959659e+000	-7.579767e-005
8.452091327223721e-003	5.000000e+000	4.999970e+000	-8.003291e-005
8.510971059304684e-003	5.000000e+000	5.044321e+000	-6.485057e-005
8.539410946737071e-003	5.000000e+000	5.061410e+000	-4.959687e-005
8.569200450235980e-003	5.000000e+000	5.073273e+000	-2.842512e-005
8.593500969998176e-003	5.000000e+000	5.078323e+000	-9.626881e-006
8.614155171449573e-003	5.000000e+000	5.078785e+000	6.623492e-006
8.634746863412665e-003	5.000000e+000	5.075443e+000	2.202573e-005
8.666073880822255e-003	5.000000e+000	5.064514e+000	4.246927e-005
8.702294647899740e-003	5.000000e+000	5.045412e+000	5.969507e-005
8.748871680094804e-003	5.000000e+000	5.014868e+000	6.940396e-005
8.802023269123821e-003	5.000000e+000	4.978852e+000	6.454460e-005
8.843543149317467e-003	5.000000e+000	4.954217e+000	4.968178e-005
8.872286506228608e-003	5.000000e+000	4.941585e+000	3.402261e-005
8.897269692564111e-003	5.000000e+000	4.934772e+000	1.802732e-005
8.918240017600202e-003	5.000000e+000	4.932406e+000	3.901397e-006
8.941304504512889e-003	5.000000e+000	4.933351e+000	-1.149133e-005
8.964038849574252e-003	5.000000e+000	4.937964e+000	-2.544210e-005
8.999904256120711e-003	5.000000e+000	4.951107e+000	-4.358613e-005
9.038062036182104e-003	5.000000e+000	4.970419e+000	-5.581354e-005
9.089372651952523e-003	5.000000e+000	5.000100e+000	-5.886909e-005
9.148347408938511e-003	5.000000e+000	5.032757e+000	-4.760723e-005
9.176727456154594e-003	5.000000e+000	5.045279e+000	-3.637980e-005
9.206474920229626e-003	5.000000e+000	5.053961e+000	-2.080540e-005
9.230731362911620e-003	5.000000e+000	5.057643e+000	-6.993209e-006
9.251443813705103e-003	5.000000e+000	5.057965e+000	4.997719e-006
9.271863666351505e-003	5.000000e+000	5.055509e+000	1.622996e-005
9.303384487483168e-003	5.000000e+000	5.047393e+000	3.135148e-005
9.339503012667012e-003	5.000000e+000	5.033358e+000	4.395958e-005
9.386291317857523e-003	5.000000e+000	5.010765e+000	5.108055e-005
9.439351567431540e-003	5.000000e+000	4.984304e+000	4.747310e-005
9.480406381707359e-003	5.000000e+000	4.966383e+000	3.663895e-005
9.509335389960807e-003	5.000000e+000	4.957024e+000	2.503917e-005
9.534262865786410e-003	5.000000e+000	4.952011e+000	1.330023e-005
9.555214857668585e-003	5.000000e+000	4.950264e+000	2.914996e-006
9.578239803043172e-003	5.000000e+000	4.950945e+000	-8.394761e-006
9.600914091746777e-003	5.000000e+000	4.954315e+000	-1.864068e-005
9.636742163011604e-003	5.000000e+000	4.963949e+000	-3.200109e-005
9.674850278054632e-003	5.000000e+000	4.978121e+000	-4.102505e-005
