Freq.	V(vout)
1.00000000000000e+001	(1.39622007101691e+001dB,-3.59537948654945e+000°)
2.00000000000000e+001	(1.39112480484240e+001dB,-7.16350437061201e+000°)
3.00000000000000e+001	(1.38275809382894e+001dB,-1.06783519209088e+001°)
4.00000000000000e+001	(1.37129834063542e+001dB,-1.41162271877290e+001°)
5.00000000000000e+001	(1.35697741268090e+001dB,-1.74566141714323e+001°)
6.00000000000000e+001	(1.34006585898887e+001dB,-2.06827194051387e+001°)
7.00000000000000e+001	(1.32085751781521e+001dB,-2.37816966293014e+001°)
8.00000000000000e+001	(1.29965508219471e+001dB,-2.67445856561416e+001°)
9.00000000000000e+001	(1.27675773925135e+001dB,-2.95660277437009e+001°)
1.00000000000000e+002	(1.25245148243169e+001dB,-3.22438317080553e+001°)
1.10000000000000e+002	(1.22700223339122e+001dB,-3.47784623223035e+001°)
1.20000000000000e+002	(1.20065156969186e+001dB,-3.71725104563673e+001°)
1.30000000000000e+002	(1.17361465264294e+001dB,-3.94301882529146e+001°)
1.40000000000000e+002	(1.14607986865533e+001dB,-4.15568765359975e+001°)
1.50000000000000e+002	(1.11820970354193e+001dB,-4.35587380575731e+001°)
1.60000000000000e+002	(1.09014242696090e+001dB,-4.54424000710869e+001°)
1.70000000000000e+002	(1.06199424483742e+001dB,-4.72147030415187e+001°)
1.80000000000000e+002	(1.03386166137744e+001dB,-4.88825084883310e+001°)
1.90000000000000e+002	(1.00582386784608e+001dB,-5.04525572681509e+001°)
2.00000000000000e+002	(9.77945037574863e+000dB,-5.19313693319922e+001°)
2.10000000000000e+002	(9.50276454697454e+000dB,-5.33251765654880e+001°)
2.20000000000000e+002	(9.22858439138873e+000dB,-5.46398813239122e+001°)
2.30000000000000e+002	(8.95722054606347e+000dB,-5.58810344303352e+001°)
2.40000000000000e+002	(8.68890602151898e+000dB,-5.70538275476802e+001°)
2.50000000000000e+002	(8.42380911490160e+000dB,-5.81630958738060e+001°)
2.60000000000000e+002	(8.16204447478992e+000dB,-5.92133280039661e+001°)
2.70000000000000e+002	(7.90368251421883e+000dB,-6.02086805489175e+001°)
2.80000000000000e+002	(7.64875737182781e+000dB,-6.11529956984683e+001°)
2.90000000000000e+002	(7.39727361267743e+000dB,-6.20498203963214e+001°)
3.00000000000000e+002	(7.14921184542778e+000dB,-6.29024261623023e+001°)
3.10000000000000e+002	(6.90453341468800e+000dB,-6.37138288816920e+001°)
3.20000000000000e+002	(6.66318430863703e+000dB,-6.44868080957040e+001°)
3.30000000000000e+002	(6.42509840382328e+000dB,-6.52239254870000e+001°)
3.40000000000000e+002	(6.19020015212950e+000dB,-6.59275423717584e+001°)
3.50000000000000e+002	(5.95840679960653e+000dB,-6.65998360951025e+001°)
3.60000000000000e+002	(5.72963021335817e+000dB,-6.72428152874847e+001°)
3.70000000000000e+002	(5.50377838087480e+000dB,-6.78583339820336e+001°)
3.80000000000000e+002	(5.28075663605454e+000dB,-6.84481046216239e+001°)
3.90000000000000e+002	(5.06046865746761e+000dB,-6.90137100031353e+001°)
4.00000000000000e+002	(4.84281727704396e+000dB,-6.95566142177701e+001°)
4.10000000000000e+002	(4.62770513113033e+000dB,-7.00781726524555e+001°)
4.20000000000000e+002	(4.41503518061296e+000dB,-7.05796411198086e+001°)
4.30000000000000e+002	(4.20471112239348e+000dB,-7.10621841840315e+001°)
4.40000000000000e+002	(3.99663771081125e+000dB,-7.15268827482695e+001°)
4.50000000000000e+002	(3.79072100451438e+000dB,-7.19747409660247e+001°)
4.60000000000000e+002	(3.58686855169798e+000dB,-7.24066925356049e+001°)
4.70000000000000e+002	(3.38498952447110e+000dB,-7.28236064326294e+001°)
4.80000000000000e+002	(3.18499481131226e+000dB,-7.32262921315219e+001°)
4.90000000000000e+002	(2.98679707507092e+000dB,-7.36155043628538e+001°)
5.00000000000000e+002	(2.79031078271759e+000dB,-7.39919474494566e+001°)
5.10000000000000e+002	(2.59545221199872e+000dB,-7.43562792604701e+001°)
5.20000000000000e+002	(2.40213943927846e+000dB,-7.47091148189609e+001°)
5.30000000000000e+002	(2.21029231211983e+000dB,-7.50510295954668e+001°)
5.40000000000000e+002	(2.01983240954846e+000dB,-7.53825625167921e+001°)
5.50000000000000e+002	(1.83068299243266e+000dB,-7.57042187165976e+001°)
5.60000000000000e+002	(1.64276894598771e+000dB,-7.60164720517903e+001°)
5.70000000000000e+002	(1.45601671605627e+000dB,-7.63197674064077e+001°)
5.80000000000000e+002	(1.27035424051844e+000dB,-7.66145228025922e+001°)
5.90000000000000e+002	(1.08571087693548e+000dB,-7.69011313363567e+001°)
6.00000000000000e+002	(9.02017327321736e-001dB,-7.71799629541232e+001°)
6.10000000000000e+002	(7.19205560763677e-001dB,-7.74513660844701e+001°)
6.20000000000000e+002	(5.37208734457649e-001dB,-7.77156691381286e+001°)
6.30000000000000e+002	(3.55961113613526e-001dB,-7.79731818880096e+001°)
6.40000000000000e+002	(1.75397990567155e-001dB,-7.82241967399104e+001°)
6.50000000000000e+002	(-4.54439664382944e-003dB,-7.84689899035334e+001°)
6.60000000000000e+002	(-1.83928946061207e-001dB,-7.87078224725297e+001°)
6.70000000000000e+002	(-3.62817773828029e-001dB,-7.89409414214548e+001°)
6.80000000000000e+002	(-5.41272296389281e-001dB,-7.91685805267822e+001°)
6.90000000000000e+002	(-7.19353312856065e-001dB,-7.93909612184504e+001°)
7.00000000000000e+002	(-8.97121087558315e-001dB,-7.96082933678165e+001°)
7.10000000000000e+002	(-1.07463543284660e+000dB,-7.98207760173470e+001°)
7.20000000000000e+002	(-1.25195579223447e+000dB,-8.00285980568871e+001°)
7.30000000000000e+002	(-1.42914132400135e+000dB,-8.02319388509085e+001°)
7.40000000000000e+002	(-1.60625098540100e+000dB,-8.04309688207375e+001°)
7.50000000000000e+002	(-1.78334361764499e+000dB,-8.06258499854075e+001°)
7.60000000000000e+002	(-1.96047803185265e+000dB,-8.08167364644513e+001°)
7.70000000000000e+002	(-2.13771309618128e+000dB,-8.10037749456617e+001°)
7.80000000000000e+002	(-2.31510782437195e+000dB,-8.11871051205761e+001°)
7.90000000000000e+002	(-2.49272146596787e+000dB,-8.13668600902072e+001°)
8.00000000000000e+002	(-2.67061359848510e+000dB,-8.15431667433200e+001°)
8.10000000000000e+002	(-2.84884422183877e+000dB,-8.17161461093611e+001°)
8.20000000000000e+002	(-3.02747385535264e+000dB,-8.18859136879646e+001°)
8.30000000000000e+002	(-3.20656363770709e+000dB,-8.20525797567996e+001°)
8.40000000000000e+002	(-3.38617543020875e+000dB,-8.22162496593750e+001°)
8.50000000000000e+002	(-3.56637192379735e+000dB,-8.23770240742841e+001°)
8.60000000000000e+002	(-3.74721675023932e+000dB,-8.25349992672490e+001°)
8.70000000000000e+002	(-3.92877459799630e+000dB,-8.26902673272152e+001°)
8.80000000000000e+002	(-4.11111133329888e+000dB,-8.28429163876444e+001°)
8.90000000000000e+002	(-4.29429412700287e+000dB,-8.29930308340614e+001°)
9.00000000000000e+002	(-4.47839158785807e+000dB,-8.31406914988288e+001°)
9.10000000000000e+002	(-4.66347390287803e+000dB,-8.32859758440443e+001°)
9.20000000000000e+002	(-4.84961298556458e+000dB,-8.34289581333864e+001°)
9.30000000000000e+002	(-5.03688263281520e+000dB,-8.35697095936700e+001°)
9.40000000000000e+002	(-5.22535869142336e+000dB,-8.37082985668154e+001°)
9.50000000000000e+002	(-5.41511923517533e+000dB,-8.38447906528793e+001°)
9.60000000000000e+002	(-5.60624475365218e+000dB,-8.39792488447481e+001°)
9.70000000000000e+002	(-5.79881835396382e+000dB,-8.41117336550497e+001°)
9.80000000000000e+002	(-5.99292597677662e+000dB,-8.42423032357949e+001°)
9.90000000000000e+002	(-6.18865662814779e+000dB,-8.43710134912276e+001°)
1.00000000000000e+003	(-6.38610262885291e+000dB,-8.44979181843216e+001°)
1.01000000000000e+003	(-6.58535988308893e+000dB,-8.46230690373346e+001°)
1.02000000000000e+003	(-6.78652816865949e+000dB,-8.47465158267981e+001°)
1.03000000000000e+003	(-6.98971145100479e+000dB,-8.48683064732956e+001°)
1.04000000000000e+003	(-7.19501822373144e+000dB,-8.49884871263550e+001°)
1.05000000000000e+003	(-7.40256187863319e+000dB,-8.51071022447618e+001°)
1.06000000000000e+003	(-7.61246110858009e+000dB,-8.52241946725729e+001°)
1.07000000000000e+003	(-7.82484034709842e+000dB,-8.53398057110960e+001°)
1.08000000000000e+003	(-8.03983024897807e+000dB,-8.54539751870790e+001°)
1.09000000000000e+003	(-8.25756821683989e+000dB,-8.55667415173370e+001°)
1.10000000000000e+003	(-8.47819897928695e+000dB,-8.56781417700310e+001°)
1.11000000000000e+003	(-8.70187522707028e+000dB,-8.57882117227942e+001°)
1.12000000000000e+003	(-8.92875831464007e+000dB,-8.58969859178938e+001°)
1.13000000000000e+003	(-9.15901903555729e+000dB,-8.60044977145972e+001°)
1.14000000000000e+003	(-9.39283848153632e+000dB,-8.61107793389075e+001°)
1.15000000000000e+003	(-9.63040899641894e+000dB,-8.62158619308153e+001°)
1.16000000000000e+003	(-9.87193523818922e+000dB,-8.63197755892096e+001°)
1.17000000000000e+003	(-1.01176353642878e+001dB,-8.64225494145776e+001°)
1.18000000000000e+003	(-1.03677423580471e+001dB,-8.65242115496157e+001°)
1.19000000000000e+003	(-1.06225055171348e+001dB,-8.66247892178675e+001°)
1.20000000000000e+003	(-1.08821921285796e+001dB,-8.67243087604938e+001°)
1.21000000000000e+003	(-1.11470893594022e+001dB,-8.68227956712744e+001°)
1.22000000000000e+003	(-1.14175063972702e+001dB,-8.69202746299352e+001°)
1.23000000000000e+003	(-1.16937768821675e+001dB,-8.70167695338852e+001°)
1.24000000000000e+003	(-1.19762616781193e+001dB,-8.71123035284439e+001°)
1.25000000000000e+003	(-1.22653520439229e+001dB,-8.72068990356323e+001°)
1.26000000000000e+003	(-1.25614732740961e+001dB,-8.73005777815944e+001°)
1.27000000000000e+003	(-1.28650888965332e+001dB,-8.73933608227111e+001°)
1.28000000000000e+003	(-1.31767055324861e+001dB,-8.74852685704597e+001°)
1.29000000000000e+003	(-1.34968785486259e+001dB,-8.75763208150681e+001°)
1.30000000000000e+003	(-1.38262186615823e+001dB,-8.76665367480029e+001°)
1.31000000000000e+003	(-1.41653996945710e+001dB,-8.77559349833237e+001°)
1.32000000000000e+003	(-1.45151677362795e+001dB,-8.78445335779243e+001°)
1.33000000000000e+003	(-1.48763520179342e+001dB,-8.79323500506714e+001°)
1.34000000000000e+003	(-1.52498779107466e+001dB,-8.80194014004337e+001°)
1.35000000000000e+003	(-1.56367825602372e+001dB,-8.81057041229772e+001°)
1.36000000000000e+003	(-1.60382338269350e+001dB,-8.81912742266728e+001°)
1.37000000000000e+003	(-1.64555534100490e+001dB,-8.82761272469302e+001°)
1.38000000000000e+003	(-1.68902453144140e+001dB,-8.83602782592194e+001°)
1.39000000000000e+003	(-1.73440312147738e+001dB,-8.84437418904710e+001°)
1.40000000000000e+003	(-1.78188948257507e+001dB,-8.85265323285432e+001°)
1.41000000000000e+003	(-1.83171381782658e+001dB,-8.86086633292878e+001°)
1.42000000000000e+003	(-1.88414538553738e+001dB,-8.86901482205180e+001°)
1.43000000000000e+003	(-1.93950189473479e+001dB,-8.87709999018117e+001°)
1.44000000000000e+003	(-1.99816190671231e+001dB,-8.88512308385150e+001°)
1.45000000000000e+003	(-2.06058147615305e+001dB,-8.89308530473602e+001°)
1.46000000000000e+003	(-2.12731689956512e+001dB,-8.90098780695319e+001°)
1.47000000000000e+003	(-2.19905647532712e+001dB,-8.90883169242513e+001°)
1.48000000000000e+003	(-2.27666593071693e+001dB,-8.91661800309628e+001°)
1.49000000000000e+003	(-2.36125524364691e+001dB,-8.92434770788030e+001°)
1.50000000000000e+003	(-2.45428021993928e+001dB,-8.93202168033828e+001°)
1.51000000000000e+003	(-2.55770306420046e+001dB,-8.93964065916837e+001°)
1.52000000000000e+003	(-2.67425852790491e+001dB,-8.94720517472948e+001°)
1.53000000000000e+003	(-2.80792172902258e+001dB,-8.95471540301302e+001°)
1.54000000000000e+003	(-2.96479433484117e+001dB,-8.96217084859165e+001°)
1.55000000000000e+003	(-3.15495794643310e+001dB,-8.96956956847345e+001°)
1.56000000000000e+003	(-3.39692520004318e+001dB,-8.97690591832191e+001°)
1.57000000000000e+003	(-3.73083131243912e+001dB,-8.98416202127547e+001°)
1.58000000000000e+003	(-4.27535129585628e+001dB,-8.99125491281951e+001°)
1.59000000000000e+003	(-6.02287270586264e+001dB,-8.99593690134414e+001°)
1.60000000000000e+003	(-4.55216572609057e+001dB,8.99339638764214e+001°)
1.61000000000000e+003	(-3.87661444377733e+001dB,8.98654885705142e+001°)
1.62000000000000e+003	(-3.50312468394852e+001dB,8.97953950211451e+001°)
1.63000000000000e+003	(-3.24415030476880e+001dB,8.97252792830674e+001°)
1.64000000000000e+003	(-3.04598428731465e+001dB,8.96554134543142e+001°)
1.65000000000000e+003	(-2.88560804606417e+001dB,8.95858783758882e+001°)
1.66000000000000e+003	(-2.75101248399834e+001dB,8.95167034645528e+001°)
1.67000000000000e+003	(-2.63513339604851e+001dB,8.94478995957657e+001°)
1.68000000000000e+003	(-2.53346152363254e+001dB,8.93794696772810e+001°)
1.69000000000000e+003	(-2.44294202982963e+001dB,8.93114127758496e+001°)
1.70000000000000e+003	(-2.36140933140446e+001dB,8.92437259583105e+001°)
1.71000000000000e+003	(-2.28727230333713e+001dB,8.91764051978787e+001°)
1.72000000000000e+003	(-2.21932752345980e+001dB,8.91094458551376e+001°)
1.73000000000000e+003	(-2.15664273699842e+001dB,8.90428429488365e+001°)
1.74000000000000e+003	(-2.09848106199309e+001dB,8.89765913156713e+001°)
1.75000000000000e+003	(-2.04424995531221e+001dB,8.89106857081523e+001°)
1.76000000000000e+003	(-1.99346582518765e+001dB,8.88451208563365e+001°)
1.77000000000000e+003	(-1.94572886488622e+001dB,8.87798915076484e+001°)
1.78000000000000e+003	(-1.90070475750804e+001dB,8.87149924529683e+001°)
1.79000000000000e+003	(-1.85811111679306e+001dB,8.86504185438722e+001°)
1.80000000000000e+003	(-1.81770726488993e+001dB,8.85861647040282e+001°)
1.81000000000000e+003	(-1.77928640766691e+001dB,8.85222259366548e+001°)
1.82000000000000e+003	(-1.74266956290850e+001dB,8.84585973292764e+001°)
1.83000000000000e+003	(-1.70770079032254e+001dB,8.83952740565960e+001°)
1.84000000000000e+003	(-1.67424340215421e+001dB,8.83322513820413e+001°)
1.85000000000000e+003	(-1.64217692202388e+001dB,8.82695246583648e+001°)
1.86000000000000e+003	(-1.61139462141985e+001dB,8.82070893275662e+001°)
1.87000000000000e+003	(-1.58180150698598e+001dB,8.81449409203263e+001°)
1.88000000000000e+003	(-1.55331266310267e+001dB,8.80830750550898e+001°)
1.89000000000000e+003	(-1.52585187706132e+001dB,8.80214874368944e+001°)
1.90000000000000e+003	(-1.49935049091618e+001dB,8.79601738560199e+001°)
1.91000000000000e+003	(-1.47374643659474e+001dB,8.78991301865117e+001°)
1.92000000000000e+003	(-1.44898342025084e+001dB,8.78383523846174e+001°)
1.93000000000000e+003	(-1.42501022899048e+001dB,8.77778364871677e+001°)
1.94000000000000e+003	(-1.40178013858019e+001dB,8.77175786099241e+001°)
1.95000000000000e+003	(-1.37925040498663e+001dB,8.76575749459106e+001°)
1.96000000000000e+003	(-1.35738182590130e+001dB,8.75978217637418e+001°)
1.97000000000000e+003	(-1.33613836100088e+001dB,8.75383154059592e+001°)
1.98000000000000e+003	(-1.31548680174853e+001dB,8.74790522873806e+001°)
1.99000000000000e+003	(-1.29539648317790e+001dB,8.74200288934701e+001°)
2.00000000000000e+003	(-1.27583903141379e+001dB,8.73612417787329e+001°)
2.01000000000000e+003	(-1.25678814174118e+001dB,8.73026875651369e+001°)
2.02000000000000e+003	(-1.23821938289255e+001dB,8.72443629405642e+001°)
2.03000000000000e+003	(-1.22011002392285e+001dB,8.71862646572939e+001°)
2.04000000000000e+003	(-1.20243888061470e+001dB,8.71283895305180e+001°)
2.05000000000000e+003	(-1.18518617882896e+001dB,8.70707344368892e+001°)
2.06000000000000e+003	(-1.16833343260576e+001dB,8.70132963131032e+001°)
2.07000000000000e+003	(-1.15186333514634e+001dB,8.69560721545136e+001°)
2.08000000000000e+003	(-1.13575966107630e+001dB,8.68990590137812e+001°)
2.09000000000000e+003	(-1.12000717861822e+001dB,8.68422539995557e+001°)
2.10000000000000e+003	(-1.10459157049220e+001dB,8.67856542751902e+001°)
2.11000000000000e+003	(-1.08949936252413e+001dB,8.67292570574885e+001°)
2.12000000000000e+003	(-1.07471785907782e+001dB,8.66730596154836e+001°)
2.13000000000000e+003	(-1.06023508454329e+001dB,8.66170592692472e+001°)
2.14000000000000e+003	(-1.04603973021234e+001dB,8.65612533887305e+001°)
2.15000000000000e+003	(-1.03212110595716e+001dB,8.65056393926340e+001°)
2.16000000000000e+003	(-1.01846909620029e+001dB,8.64502147473065e+001°)
2.17000000000000e+003	(-1.00507411972691e+001dB,8.63949769656731e+001°)
2.18000000000000e+003	(-9.91927092943999e+000dB,8.63399236061901e+001°)
2.19000000000000e+003	(-9.79019396237928e+000dB,8.62850522718276e+001°)
2.20000000000000e+003	(-9.66342843122141e+000dB,8.62303606090777e+001°)
2.21000000000000e+003	(-9.53889651902051e+000dB,8.61758463069891e+001°)
2.22000000000000e+003	(-9.41652419614724e+000dB,8.61215070962262e+001°)
2.23000000000000e+003	(-9.29624098027839e+000dB,8.60673407481520e+001°)
2.24000000000000e+003	(-9.17797971505789e+000dB,8.60133450739354e+001°)
2.25000000000000e+003	(-9.06167636571440e+000dB,8.59595179236811e+001°)
2.26000000000000e+003	(-8.94726983010107e+000dB,8.59058571855813e+001°)
2.27000000000000e+003	(-8.83470176378282e+000dB,8.58523607850899e+001°)
2.28000000000000e+003	(-8.72391641793745e+000dB,8.57990266841172e+001°)
2.29000000000000e+003	(-8.61486048896128e+000dB,8.57458528802449e+001°)
2.30000000000000e+003	(-8.50748297878022e+000dB,8.56928374059617e+001°)
2.31000000000000e+003	(-8.40173506496597e+000dB,8.56399783279179e+001°)
2.32000000000000e+003	(-8.29756997984322e+000dB,8.55872737461980e+001°)
2.33000000000000e+003	(-8.19494289785209e+000dB,8.55347217936129e+001°)
2.34000000000000e+003	(-8.09381083049935e+000dB,8.54823206350091e+001°)
2.35000000000000e+003	(-7.99413252829325e+000dB,8.54300684665946e+001°)
2.36000000000000e+003	(-7.89586838911332e+000dB,8.53779635152830e+001°)
2.37000000000000e+003	(-7.79898037251508e+000dB,8.53260040380524e+001°)
2.38000000000000e+003	(-7.70343191951524e+000dB,8.52741883213210e+001°)
2.39000000000000e+003	(-7.60918787744228e+000dB,8.52225146803378e+001°)
2.40000000000000e+003	(-7.51621442947421e+000dB,8.51709814585882e+001°)
2.41000000000000e+003	(-7.42447902851715e+000dB,8.51195870272140e+001°)
2.42000000000000e+003	(-7.33395033510845e+000dB,8.50683297844481e+001°)
2.43000000000000e+003	(-7.24459815905417e+000dB,8.50172081550623e+001°)
2.44000000000000e+003	(-7.15639340453523e+000dB,8.49662205898287e+001°)
2.45000000000000e+003	(-7.06930801843793e+000dB,8.49153655649938e+001°)
2.46000000000000e+003	(-6.98331494168470e+000dB,8.48646415817660e+001°)
2.47000000000000e+003	(-6.89838806335874e+000dB,8.48140471658141e+001°)
2.48000000000000e+003	(-6.81450217743259e+000dB,8.47635808667792e+001°)
2.49000000000000e+003	(-6.73163294192557e+000dB,8.47132412577970e+001°)
2.50000000000000e+003	(-6.64975684032856e+000dB,8.46630269350320e+001°)
2.51000000000000e+003	(-6.56885114514721e+000dB,8.46129365172225e+001°)
2.52000000000000e+003	(-6.48889388342538e+000dB,8.45629686452362e+001°)
2.53000000000000e+003	(-6.40986380412182e+000dB,8.45131219816365e+001°)
2.54000000000000e+003	(-6.33174034722169e+000dB,8.44633952102588e+001°)
2.55000000000000e+003	(-6.25450361447385e+000dB,8.44137870357961e+001°)
2.56000000000000e+003	(-6.17813434165242e+000dB,8.43642961833952e+001°)
2.57000000000000e+003	(-6.10261387224854e+000dB,8.43149213982613e+001°)
2.58000000000000e+003	(-6.02792413250488e+000dB,8.42656614452721e+001°)
2.59000000000000e+003	(-5.95404760771189e+000dB,8.42165151086007e+001°)
2.60000000000000e+003	(-5.88096731968992e+000dB,8.41674811913472e+001°)
2.61000000000000e+003	(-5.80866680538709e+000dB,8.41185585151782e+001°)
2.62000000000000e+003	(-5.73713009652740e+000dB,8.40697459199751e+001°)
2.63000000000000e+003	(-5.66634170024782e+000dB,8.40210422634900e+001°)
2.64000000000000e+003	(-5.59628658066755e+000dB,8.39724464210093e+001°)
2.65000000000000e+003	(-5.52695014133625e+000dB,8.39239572850246e+001°)
2.66000000000000e+003	(-5.45831820851141e+000dB,8.38755737649118e+001°)
2.67000000000000e+003	(-5.39037701521859e+000dB,8.38272947866165e+001°)
2.68000000000000e+003	(-5.32311318605099e+000dB,8.37791192923464e+001°)
2.69000000000000e+003	(-5.25651372266769e+000dB,8.37310462402711e+001°)
2.70000000000000e+003	(-5.19056598995259e+000dB,8.36830746042280e+001°)
2.71000000000000e+003	(-5.12525770279818e+000dB,8.36352033734346e+001°)
2.72000000000000e+003	(-5.06057691348092e+000dB,8.35874315522077e+001°)
