time	V(vin)	V(vout)	I(R1)
0.000000000000000e+000	0.000000e+000	0.000000e+000	0.000000e+000
1.428571428571429e-010	7.142857e-001	-3.337456e-012	-5.624555e-010
2.857142857142858e-010	1.428571e+000	-1.538000e-012	-2.130390e-009
4.285714285714288e-010	2.142857e+000	5.398368e-012	-4.703803e-009
5.714285714285716e-010	2.857143e+000	1.747165e-011	-8.282696e-009
7.142857142857145e-010	3.571429e+000	3.468184e-011	-1.286707e-008
8.571428571428575e-010	4.285714e+000	5.702895e-011	-1.845692e-008
1.000000000000000e-009	5.000000e+000	8.451297e-011	-2.505225e-008
2.283328362829088e-007	5.000000e+000	1.668153e-005	-1.134181e-005
4.556656725658176e-007	5.000000e+000	6.456120e-005	-2.256460e-005
6.829985088487263e-007	5.000000e+000	1.436391e-004	-3.369343e-005
9.103313451316352e-007	5.000000e+000	2.539152e-004	-4.472830e-005
1.137664181414544e-006	5.000000e+000	3.953895e-004	-5.566922e-005
1.364997017697453e-006	5.000000e+000	5.680621e-004	-6.651617e-005
1.592329853980361e-006	5.000000e+000	7.719328e-004	-7.726916e-005
3.183671848936636e-006	5.000000e+000	2.927220e-003	-1.503303e-004
5.872445566753953e-006	5.000000e+000	9.191206e-003	-2.657771e-004
9.790284020281329e-006	5.000000e+000	2.364692e-002	-4.175529e-004
1.532260662163815e-005	5.000000e+000	5.345843e-002	-6.023386e-004
2.272560333399028e-005	5.000000e+000	1.076201e-001	-8.034489e-004
3.255517573374386e-005	5.000000e+000	1.991009e-001	-1.004176e-003
4.530122583203759e-005	5.000000e+000	3.410764e-001	-1.178692e-003
6.191734126823978e-005	5.000000e+000	5.498613e-001	-1.305137e-003
8.230498257730692e-005	5.000000e+000	8.227381e-001	-1.361765e-003
1.051068875395798e-004	5.000000e+000	1.131320e+000	-1.348146e-003
1.322306803416185e-004	5.000000e+000	1.486449e+000	-1.278112e-003
1.615275553416185e-004	5.000000e+000	1.845416e+000	-1.175959e-003
1.908244303416185e-004	5.000000e+000	2.173910e+000	-1.066554e-003
2.201213053416185e-004	5.000000e+000	2.470813e+000	-9.603077e-004
2.494181803416185e-004	5.000000e+000	2.737689e+000	-8.615611e-004
2.787150553416186e-004	5.000000e+000	2.976922e+000	-7.716040e-004
3.080119303416186e-004	5.000000e+000	3.191087e+000	-6.904336e-004
3.373088053416186e-004	5.000000e+000	3.382684e+000	-6.175326e-004
3.666056803416186e-004	5.000000e+000	3.554033e+000	-5.522090e-004
3.959025553416187e-004	5.000000e+000	3.707248e+000	-4.937419e-004
4.251994303416187e-004	5.000000e+000	3.844238e+000	-4.414415e-004
4.544963053416187e-004	5.000000e+000	3.966715e+000	-3.946705e-004
4.837931803416188e-004	5.000000e+000	4.076216e+000	-3.528502e-004
5.130900553416188e-004	5.000000e+000	4.174112e+000	-3.154591e-004
5.423869303416188e-004	5.000000e+000	4.261635e+000	-2.820294e-004
5.716838053416188e-004	5.000000e+000	4.339883e+000	-2.521419e-004
6.009806803416189e-004	5.000000e+000	4.409839e+000	-2.254214e-004
6.302775553416189e-004	5.000000e+000	4.472381e+000	-2.015326e-004
6.595744303416189e-004	5.000000e+000	4.528295e+000	-1.801753e-004
6.888713053416189e-004	5.000000e+000	4.578283e+000	-1.610813e-004
7.181681803416190e-004	5.000000e+000	4.622974e+000	-1.440108e-004
7.474650553416190e-004	5.000000e+000	4.662930e+000	-1.287493e-004
7.767619303416190e-004	5.000000e+000	4.698650e+000	-1.151052e-004
8.060588053416190e-004	5.000000e+000	4.730586e+000	-1.029069e-004
8.353556803416191e-004	5.000000e+000	4.759137e+000	-9.200143e-005
8.646525553416191e-004	5.000000e+000	4.784662e+000	-8.225162e-005
8.939494303416191e-004	5.000000e+000	4.807483e+000	-7.353503e-005
9.232463053416191e-004	5.000000e+000	4.827885e+000	-6.574219e-005
9.525431803416192e-004	5.000000e+000	4.846125e+000	-5.877519e-005
9.818400553416192e-004	5.000000e+000	4.862432e+000	-5.254652e-005
1.011136930341619e-003	5.000000e+000	4.877010e+000	-4.697792e-005
1.040433805341619e-003	5.000000e+000	4.890044e+000	-4.199946e-005
1.069730680341619e-003	5.000000e+000	4.901696e+000	-3.754858e-005
1.099027555341619e-003	5.000000e+000	4.912114e+000	-3.356939e-005
1.128324430341619e-003	5.000000e+000	4.921428e+000	-3.001189e-005
1.157621305341619e-003	5.000000e+000	4.929754e+000	-2.683139e-005
1.186918180341619e-003	5.000000e+000	4.937199e+000	-2.398795e-005
1.216215055341619e-003	5.000000e+000	4.943854e+000	-2.144583e-005
1.245511930341619e-003	5.000000e+000	4.949804e+000	-1.917312e-005
1.274808805341620e-003	5.000000e+000	4.955123e+000	-1.714126e-005
1.304105680341620e-003	5.000000e+000	4.959879e+000	-1.532472e-005
1.333402555341620e-003	5.000000e+000	4.964131e+000	-1.370069e-005
1.362699430341620e-003	5.000000e+000	4.967932e+000	-1.224877e-005
1.391996305341620e-003	5.000000e+000	4.971331e+000	-1.095071e-005
1.421293180341620e-003	5.000000e+000	4.974369e+000	-9.790212e-006
1.450590055341620e-003	5.000000e+000	4.977085e+000	-8.752698e-006
1.479886930341620e-003	5.000000e+000	4.979513e+000	-7.825134e-006
1.509183805341620e-003	5.000000e+000	4.981685e+000	-6.995870e-006
1.538480680341620e-003	5.000000e+000	4.983625e+000	-6.254485e-006
1.567777555341620e-003	5.000000e+000	4.985361e+000	-5.591669e-006
1.597074430341620e-003	5.000000e+000	4.986912e+000	-4.999094e-006
1.626371305341620e-003	5.000000e+000	4.988299e+000	-4.469317e-006
1.655668180341620e-003	5.000000e+000	4.989539e+000	-3.995684e-006
1.684965055341620e-003	5.000000e+000	4.990648e+000	-3.572243e-006
1.714261930341620e-003	5.000000e+000	4.991639e+000	-3.193676e-006
1.743558805341620e-003	5.000000e+000	4.992525e+000	-2.855227e-006
1.772855680341620e-003	5.000000e+000	4.993317e+000	-2.552646e-006
1.802152555341620e-003	5.000000e+000	4.994025e+000	-2.282130e-006
1.831449430341620e-003	5.000000e+000	4.994658e+000	-2.040283e-006
1.860746305341620e-003	5.000000e+000	4.995224e+000	-1.824065e-006
1.890043180341620e-003	5.000000e+000	4.995730e+000	-1.630760e-006
1.919340055341620e-003	5.000000e+000	4.996183e+000	-1.457941e-006
1.948636930341620e-003	5.000000e+000	4.996588e+000	-1.303436e-006
1.977933805341620e-003	5.000000e+000	4.996949e+000	-1.165305e-006
2.007230680341620e-003	5.000000e+000	4.997272e+000	-1.041813e-006
2.036527555341620e-003	5.000000e+000	4.997561e+000	-9.314069e-007
2.065824430341620e-003	5.000000e+000	4.997820e+000	-8.327015e-007
2.095121305341619e-003	5.000000e+000	4.998051e+000	-7.444563e-007
2.124418180341619e-003	5.000000e+000	4.998258e+000	-6.655629e-007
2.153715055341619e-003	5.000000e+000	4.998442e+000	-5.950301e-007
2.183011930341619e-003	5.000000e+000	4.998607e+000	-5.319721e-007
2.212308805341619e-003	5.000000e+000	4.998755e+000	-4.755966e-007
2.241605680341618e-003	5.000000e+000	4.998887e+000	-4.251954e-007
2.270902555341618e-003	5.000000e+000	4.999005e+000	-3.801355e-007
2.300199430341618e-003	5.000000e+000	4.999110e+000	-3.398508e-007
2.329496305341618e-003	5.000000e+000	4.999205e+000	-3.038353e-007
2.358793180341618e-003	5.000000e+000	4.999289e+000	-2.716365e-007
2.417386930341617e-003	5.000000e+000	4.999432e+000	-2.171140e-007
2.475980680341617e-003	5.000000e+000	4.999546e+000	-1.735352e-007
2.534574430341617e-003	5.000000e+000	4.999637e+000	-1.387035e-007
2.593168180341616e-003	5.000000e+000	4.999710e+000	-1.108631e-007
2.681058805341616e-003	5.000000e+000	4.999793e+000	-7.922034e-008
2.768949430341615e-003	5.000000e+000	4.999852e+000	-5.660911e-008
2.856840055341614e-003	5.000000e+000	4.999894e+000	-4.045162e-008
2.927989608913043e-003	5.000000e+000	4.999917e+000	-3.175851e-008
2.999139162484471e-003	5.000000e+000	4.999936e+000	-2.432369e-008
3.070288716055899e-003	5.000000e+000	4.999953e+000	-1.814716e-008
3.141438269627327e-003	5.000000e+000	4.999965e+000	-1.322893e-008
3.212587823198755e-003	5.000000e+000	4.999975e+000	-9.568987e-009
3.283737376770183e-003	5.000000e+000	4.999981e+000	-7.167340e-009
3.354886930341611e-003	5.000000e+000	4.999984e+000	-6.023985e-009
3.551594519627326e-003	5.000000e+000	4.999990e+000	-3.815000e-009
3.748302108913041e-003	5.000000e+000	4.999994e+000	-2.056970e-009
3.945009698198755e-003	5.000000e+000	4.999998e+000	-7.498941e-010
4.141717287484470e-003	5.000000e+000	5.000000e+000	1.062265e-010
4.338424876770185e-003	5.000000e+000	5.000001e+000	5.113922e-010
4.535132466055900e-003	5.000000e+000	5.000001e+000	4.656032e-010
4.731840055341614e-003	5.000000e+000	5.000000e+000	-3.114067e-011
5.000001002151003e-003	4.989245e+000	5.000000e+000	-1.071968e-011
5.000001144700859e-003	4.276496e+000	5.000000e+000	9.104903e-010
5.000001287250717e-003	3.563746e+000	5.000000e+000	2.717461e-009
5.000001429800573e-003	2.850997e+000	5.000000e+000	5.410192e-009
5.000001572350430e-003	2.138248e+000	5.000000e+000	8.988683e-009
5.000001714900286e-003	1.425499e+000	5.000000e+000	1.345293e-008
5.000001857450144e-003	7.127493e-001	5.000000e+000	1.880295e-008
5.000002000000000e-003	0.000000e+000	5.000000e+000	2.503872e-008
5.000688956645485e-003	0.000000e+000	4.999840e+000	3.389755e-005
5.001375913290970e-003	0.000000e+000	4.999414e+000	6.696265e-005
5.002062869936455e-003	0.000000e+000	4.998723e+000	9.922036e-005
5.002749826581941e-003	0.000000e+000	4.997765e+000	1.306707e-004
5.003436783227426e-003	0.000000e+000	4.996542e+000	1.613136e-004
5.004123739872911e-003	0.000000e+000	4.995052e+000	1.911491e-004
5.004810696518396e-003	0.000000e+000	4.993297e+000	2.201772e-004
5.009619429724515e-003	0.000000e+000	4.975042e+000	4.047285e-004
5.019236896136751e-003	0.000000e+000	4.915692e+000	7.011354e-004
5.032175144307330e-003	0.000000e+000	4.802255e+000	9.879447e-004
5.047395329051293e-003	0.000000e+000	4.633570e+000	1.198133e-003
5.064696932456258e-003	0.000000e+000	4.414308e+000	1.320412e-003
5.084717874065912e-003	0.000000e+000	4.144878e+000	1.364951e-003
5.107932063094122e-003	0.000000e+000	3.831033e+000	1.343237e-003
5.135548631800220e-003	0.000000e+000	3.471555e+000	1.267628e-003
5.164845506800220e-003	0.000000e+000	3.115804e+000	1.163765e-003
5.194142381800221e-003	0.000000e+000	2.790896e+000	1.054278e-003
5.223439256800221e-003	0.000000e+000	2.497488e+000	9.487196e-004
5.252736131800221e-003	0.000000e+000	2.233868e+000	8.509281e-004
5.282033006800221e-003	0.000000e+000	1.997602e+000	7.619762e-004
5.311329881800221e-003	0.000000e+000	1.786116e+000	6.817720e-004
5.340626756800222e-003	0.000000e+000	1.596926e+000	6.097647e-004
5.369923631800222e-003	0.000000e+000	1.427734e+000	5.452535e-004
5.399220506800222e-003	0.000000e+000	1.276449e+000	4.875188e-004
5.428517381800222e-003	0.000000e+000	1.141186e+000	4.358757e-004
5.457814256800223e-003	0.000000e+000	1.020253e+000	3.896936e-004
5.487111131800223e-003	0.000000e+000	9.121336e-001	3.484003e-004
5.516408006800223e-003	0.000000e+000	8.154714e-001	3.114806e-004
5.545704881800223e-003	0.000000e+000	7.290524e-001	2.784724e-004
5.575001756800224e-003	0.000000e+000	6.517916e-001	2.489618e-004
5.604298631800224e-003	0.000000e+000	5.827183e-001	2.225784e-004
5.633595506800224e-003	0.000000e+000	5.209650e-001	1.989908e-004
5.662892381800224e-003	0.000000e+000	4.657560e-001	1.779029e-004
5.692189256800225e-003	0.000000e+000	4.163977e-001	1.590497e-004
5.721486131800225e-003	0.000000e+000	3.722702e-001	1.421945e-004
5.750783006800225e-003	0.000000e+000	3.328190e-001	1.271255e-004
5.780079881800225e-003	0.000000e+000	2.975487e-001	1.136534e-004
5.809376756800226e-003	0.000000e+000	2.660161e-001	1.016090e-004
5.838673631800226e-003	0.000000e+000	2.378251e-001	9.084107e-005
5.867970506800226e-003	0.000000e+000	2.126217e-001	8.121423e-005
5.897267381800226e-003	0.000000e+000	1.900892e-001	7.260759e-005
5.926564256800227e-003	0.000000e+000	1.699446e-001	6.491303e-005
5.955861131800227e-003	0.000000e+000	1.519348e-001	5.803390e-005
5.985158006800227e-003	0.000000e+000	1.358336e-001	5.188378e-005
6.014454881800227e-003	0.000000e+000	1.214387e-001	4.638542e-005
6.043751756800228e-003	0.000000e+000	1.085692e-001	4.146975e-005
6.073048631800228e-003	0.000000e+000	9.706368e-002	3.707501e-005
6.102345506800228e-003	0.000000e+000	8.677740e-002	3.314600e-005
6.131642381800228e-003	0.000000e+000	7.758120e-002	2.963337e-005
6.160939256800229e-003	0.000000e+000	6.935956e-002	2.649298e-005
6.190236131800229e-003	0.000000e+000	6.200922e-002	2.368540e-005
6.219533006800229e-003	0.000000e+000	5.543781e-002	2.117535e-005
6.248829881800229e-003	0.000000e+000	4.956282e-002	1.893130e-005
6.278126756800229e-003	0.000000e+000	4.431042e-002	1.692507e-005
6.307423631800230e-003	0.000000e+000	3.961464e-002	1.513144e-005
6.336720506800230e-003	0.000000e+000	3.541650e-002	1.352789e-005
6.366017381800230e-003	0.000000e+000	3.166325e-002	1.209428e-005
6.395314256800230e-003	0.000000e+000	2.830775e-002	1.081259e-005
6.424611131800231e-003	0.000000e+000	2.530785e-002	9.666734e-006
6.453908006800231e-003	0.000000e+000	2.262586e-002	8.642306e-006
6.483204881800231e-003	0.000000e+000	2.022810e-002	7.726441e-006
6.512501756800231e-003	0.000000e+000	1.808443e-002	6.907635e-006
6.541798631800232e-003	0.000000e+000	1.616794e-002	6.175601e-006
6.571095506800232e-003	0.000000e+000	1.445455e-002	5.521145e-006
6.600392381800232e-003	0.000000e+000	1.292274e-002	4.936044e-006
6.629689256800232e-003	0.000000e+000	1.155325e-002	4.412949e-006
6.658986131800233e-003	0.000000e+000	1.032890e-002	3.945288e-006
6.688283006800233e-003	0.000000e+000	9.234303e-003	3.527188e-006
6.717579881800233e-003	0.000000e+000	8.255702e-003	3.153396e-006
6.746876756800233e-003	0.000000e+000	7.380807e-003	2.819216e-006
6.776173631800234e-003	0.000000e+000	6.598630e-003	2.520451e-006
6.805470506800234e-003	0.000000e+000	5.899343e-003	2.253347e-006
6.834767381800234e-003	0.000000e+000	5.274162e-003	2.014550e-006
6.864064256800234e-003	0.000000e+000	4.715235e-003	1.801059e-006
6.893361131800235e-003	0.000000e+000	4.215540e-003	1.610192e-006
6.922658006800235e-003	0.000000e+000	3.768800e-003	1.439553e-006
6.951954881800235e-003	0.000000e+000	3.369403e-003	1.286997e-006
6.981251756800235e-003	0.000000e+000	3.012332e-003	1.150608e-006
7.010548631800236e-003	0.000000e+000	2.693102e-003	1.028673e-006
7.039845506800236e-003	0.000000e+000	2.407701e-003	9.196597e-007
7.069142381800236e-003	0.000000e+000	2.152546e-003	8.221991e-007
7.098439256800236e-003	0.000000e+000	1.924431e-003	7.350669e-007
7.127736131800237e-003	0.000000e+000	1.720490e-003	6.571685e-007
7.157033006800237e-003	0.000000e+000	1.538162e-003	5.875254e-007
7.186329881800237e-003	0.000000e+000	1.375156e-003	5.252626e-007
7.215626756800237e-003	0.000000e+000	1.229424e-003	4.695982e-007
7.244923631800238e-003	0.000000e+000	1.099137e-003	4.198327e-007
7.274220506800238e-003	0.000000e+000	9.826563e-004	3.753411e-007
7.303517381800238e-003	0.000000e+000	8.785197e-004	3.355645e-007
7.332814256800238e-003	0.000000e+000	7.854190e-004	3.000032e-007
7.362111131800238e-003	0.000000e+000	7.021845e-004	2.682105e-007
7.420704881800239e-003	0.000000e+000	5.612431e-004	2.143757e-007
7.479298631800239e-003	0.000000e+000	4.485912e-004	1.713465e-007
7.537892381800240e-003	0.000000e+000	3.585506e-004	1.369541e-007
7.596486131800240e-003	0.000000e+000	2.865829e-004	1.094649e-007
7.684376756800241e-003	0.000000e+000	2.047858e-004	7.822119e-008
7.772267381800242e-003	0.000000e+000	1.463354e-004	5.589514e-008
7.860158006800242e-003	0.000000e+000	1.045681e-004	3.994143e-008
7.931307560371670e-003	0.000000e+000	8.209625e-005	3.135796e-008
8.002457113943096e-003	0.000000e+000	6.287712e-005	2.401691e-008
8.073606667514523e-003	0.000000e+000	4.691070e-005	1.791828e-008
8.144756221085949e-003	0.000000e+000	3.419699e-005	1.306208e-008
8.215905774657377e-003	0.000000e+000	2.473598e-005	9.448301e-009
8.287055328228803e-003	0.000000e+000	1.852768e-005	7.076943e-009
8.358204881800231e-003	0.000000e+000	1.557209e-005	5.948008e-009
8.559097738943084e-003	0.000000e+000	9.823943e-006	3.752411e-009
8.759990596085936e-003	0.000000e+000	5.253741e-006	2.006750e-009
8.960883453228791e-003	0.000000e+000	1.861489e-006	7.110251e-010
9.161776310371643e-003	0.000000e+000	-3.528148e-007	-1.347633e-010
9.362669167514496e-003	0.000000e+000	-1.389169e-006	-5.306154e-010
9.563562024657349e-003	0.000000e+000	-1.247575e-006	-4.765312e-010
9.764454881800201e-003	0.000000e+000	7.196827e-008	2.748942e-011
1.000000000000000e-002	0.000000e+000	2.915318e-008	1.113552e-011
1.000000014285714e-002	7.142857e-001	2.915279e-008	-8.943640e-010
1.000000028571429e-002	1.428571e+000	2.915665e-008	-2.690881e-009
1.000000042857143e-002	2.142857e+000	2.916476e-008	-5.378414e-009
1.000000057142857e-002	2.857143e+000	2.917712e-008	-8.956965e-009
1.000000071428571e-002	3.571429e+000	2.919374e-008	-1.342653e-008
1.000000085714286e-002	4.285714e+000	2.921462e-008	-1.878712e-008
1.000000100000000e-002	5.000000e+000	2.923974e-008	-2.503872e-008
1.000034447359739e-002	5.000000e+000	3.916528e-005	-1.708181e-005
1.000068794719479e-002	5.000000e+000	1.476386e-004	-3.392936e-005
1.000103142079218e-002	5.000000e+000	3.254493e-004	-5.056768e-005
1.000137489438957e-002	5.000000e+000	5.725972e-004	-6.699676e-005
1.000171836798696e-002	5.000000e+000	8.890824e-004	-8.321662e-005
1.000206184158436e-002	5.000000e+000	1.274905e-003	-9.922725e-005
1.000240531518175e-002	5.000000e+000	1.730065e-003	-1.150286e-004
1.000473851740212e-002	5.000000e+000	6.168056e-003	-2.182594e-004
1.000806662765666e-002	5.000000e+000	1.654994e-002	-3.530691e-004
1.001303044069998e-002	5.000000e+000	3.987935e-002	-5.296842e-004
1.001957075970078e-002	5.000000e+000	8.274621e-002	-7.236511e-004
1.002850191362841e-002	5.000000e+000	1.590799e-001	-9.294710e-004
1.003994199584582e-002	5.000000e+000	2.788034e-001	-1.115378e-003
1.005504908725085e-002	5.000000e+000	4.613686e-001	-1.263475e-003
1.007445691372466e-002	5.000000e+000	7.165928e-001	-1.349826e-003
1.009598607168117e-002	5.000000e+000	1.008381e+000	-1.360769e-003
1.012150841336275e-002	5.000000e+000	1.348230e+000	-1.310006e-003
1.015080528836275e-002	5.000000e+000	1.717305e+000	-1.214962e-003
1.018010216336275e-002	5.000000e+000	2.057384e+000	-1.106638e-003
1.020939903836275e-002	5.000000e+000	2.365748e+000	-9.984667e-004
1.023869591336275e-002	5.000000e+000	2.643363e+000	-8.967117e-004
1.026799278836275e-002	5.000000e+000	2.892416e+000	-8.034908e-004
1.029728966336275e-002	5.000000e+000	3.115458e+000	-7.191468e-004
1.032658653836275e-002	5.000000e+000	3.315035e+000	-6.432945e-004
1.035588341336275e-002	5.000000e+000	3.493537e+000	-5.752816e-004
1.038518028836275e-002	5.000000e+000	3.653157e+000	-5.143877e-004
1.041447716336275e-002	5.000000e+000	3.795876e+000	-4.599074e-004
1.044377403836275e-002	5.000000e+000	3.923477e+000	-4.111831e-004
1.047307091336275e-002	5.000000e+000	4.037559e+000	-3.676144e-004
1.050236778836275e-002	5.000000e+000	4.139552e+000	-3.286595e-004
1.053166466336275e-002	5.000000e+000	4.230737e+000	-2.938312e-004
1.056096153836274e-002	5.000000e+000	4.312259e+000	-2.626931e-004
1.059025841336274e-002	5.000000e+000	4.385142e+000	-2.348546e-004
1.061955528836274e-002	5.000000e+000	4.450301e+000	-2.099661e-004
1.064885216336274e-002	5.000000e+000	4.508555e+000	-1.877151e-004
1.067814903836274e-002	5.000000e+000	4.560636e+000	-1.678221e-004
1.070744591336274e-002	5.000000e+000	4.607197e+000	-1.500372e-004
1.073674278836274e-002	5.000000e+000	4.648825e+000	-1.341371e-004
1.076603966336274e-002	5.000000e+000	4.686040e+000	-1.199220e-004
1.079533653836274e-002	5.000000e+000	4.719312e+000	-1.072133e-004
1.082463341336274e-002	5.000000e+000	4.749058e+000	-9.585141e-005
1.085393028836274e-002	5.000000e+000	4.775651e+000	-8.569359e-005
1.088322716336274e-002	5.000000e+000	4.799427e+000	-7.661225e-005
1.091252403836274e-002	5.000000e+000	4.820682e+000	-6.849330e-005
1.094182091336274e-002	5.000000e+000	4.839685e+000	-6.123475e-005
1.097111778836274e-002	5.000000e+000	4.856675e+000	-5.474543e-005
1.100041466336274e-002	5.000000e+000	4.871863e+000	-4.894381e-005
1.102971153836273e-002	5.000000e+000	4.885443e+000	-4.375701e-005
