time	V(n001)	V(n003)	V(n003)-V(n002)
0.000000000000000e+000	0.000000e+000	0.000000e+000	0.000000e+000
1.000000000000000e-012	5.000000e+000	3.368667e-013	-4.999999e+000
2.515619689751284e-008	4.999372e+000	2.006269e-004	-4.986614e+000
5.031139379502568e-008	4.998747e+000	7.904524e-004	-4.972892e+000
7.546659069253852e-008	4.998124e+000	1.769476e-003	-4.958833e+000
1.006217875900514e-007	4.997503e+000	3.137699e-003	-4.944437e+000
1.257769844875642e-007	4.996886e+000	4.895120e-003	-4.929705e+000
1.509321813850771e-007	4.996270e+000	7.041739e-003	-4.914635e+000
1.760873782825898e-007	4.995657e+000	9.577557e-003	-4.899228e+000
3.521737985474538e-007	4.991449e+000	3.780863e-002	-4.782615e+000
7.043466390771817e-007	4.983449e+000	1.414356e-001	-4.510985e+000
1.261987914044988e-006	4.971973e+000	4.127591e-001	-3.998676e+000
2.009384886529018e-006	4.959192e+000	9.515481e-001	-3.191483e+000
2.947710993184306e-006	4.947822e+000	1.844624e+000	-2.059633e+000
4.050514434051669e-006	4.941261e+000	3.077225e+000	-6.892509e-001
5.222389434051669e-006	4.941998e+000	4.446365e+000	6.644220e-001
6.394264434051668e-006	4.949763e+000	5.714800e+000	1.769778e+000
7.566139434051668e-006	4.962841e+000	6.738975e+000	2.519319e+000
8.738014434051668e-006	4.978967e+000	7.442110e+000	2.883808e+000
9.661373708378538e-006	4.992479e+000	7.745945e+000	2.903895e+000
1.023912546431654e-005	5.000681e+000	7.791456e+000	2.777151e+000
1.103694030553976e-005	5.010967e+000	7.684299e+000	2.453998e+000
1.188069990535136e-005	5.019962e+000	7.408227e+000	1.989026e+000
1.305257490535136e-005	5.028757e+000	6.819578e+000	1.215682e+000
1.422444990535136e-005	5.033124e+000	6.094407e+000	3.987975e-001
1.539632490535136e-005	5.032828e+000	5.321524e+000	-3.678732e-001
1.656819990535135e-005	5.028477e+000	4.603105e+000	-9.949059e-001
1.774007490535135e-005	5.021108e+000	4.022038e+000	-1.421223e+000
1.891194990535135e-005	5.012001e+000	3.622267e+000	-1.629747e+000
1.983935171785338e-005	5.004327e+000	3.448195e+000	-1.642681e+000
2.042159601523045e-005	4.999651e+000	3.421614e+000	-1.571059e+000
2.122328569006424e-005	4.993803e+000	3.481990e+000	-1.387865e+000
2.206454577075631e-005	4.988727e+000	3.637355e+000	-1.125916e+000
2.323642077075631e-005	4.983748e+000	3.970019e+000	-6.886873e-001
2.440829577075631e-005	4.981271e+000	4.379954e+000	-2.267365e-001
2.558017077075631e-005	4.981431e+000	4.817033e+000	2.069693e-001
2.675204577075631e-005	4.983887e+000	5.223454e+000	5.618234e-001
2.792392077075631e-005	4.988051e+000	5.552306e+000	8.032398e-001
2.909579577075631e-005	4.993199e+000	5.778669e+000	9.214869e-001
3.002416313702716e-005	4.997543e+000	5.877414e+000	9.290161e-001
3.060747733591530e-005	5.000193e+000	5.892561e+000	8.885217e-001
3.141008902280286e-005	5.003504e+000	5.858449e+000	7.848654e-001
3.225074890404487e-005	5.006373e+000	5.770693e+000	6.368670e-001
3.342262390404487e-005	5.009190e+000	5.582600e+000	3.896251e-001
3.459449890404487e-005	5.010591e+000	5.350800e+000	1.283889e-001
3.576637390404487e-005	5.010501e+000	5.103627e+000	-1.168952e-001
3.693824890404487e-005	5.009113e+000	4.873773e+000	-3.176045e-001
3.811012390404487e-005	5.006759e+000	4.687769e+000	-4.541726e-001
3.928199890404487e-005	5.003848e+000	4.559719e+000	-5.210876e-001
4.021060202963970e-005	5.001391e+000	4.503836e+000	-5.253749e-001
4.079417728391729e-005	4.999892e+000	4.495254e+000	-5.024762e-001
4.159701389583093e-005	4.998019e+000	4.514540e+000	-4.438500e-001
4.243752704109818e-005	4.996397e+000	4.564153e+000	-3.601742e-001
4.360940204109818e-005	4.994803e+000	4.670516e+000	-2.203588e-001
4.478127704109818e-005	4.994011e+000	4.801598e+000	-7.262802e-002
4.595315204109818e-005	4.994061e+000	4.941376e+000	6.608486e-002
4.712502704109818e-005	4.994846e+000	5.071363e+000	1.795921e-001
4.829690204109818e-005	4.996178e+000	5.176555e+000	2.568293e-001
4.946877704109818e-005	4.997824e+000	5.248974e+000	2.946763e-001
5.039743803072283e-005	4.999213e+000	5.280582e+000	2.971048e-001
5.098107734668276e-005	5.000061e+000	5.285437e+000	2.841549e-001
5.178396915134988e-005	5.001121e+000	5.274531e+000	2.510004e-001
5.262444627111265e-005	5.002038e+000	5.246477e+000	2.036843e-001
5.379632127111265e-005	5.002938e+000	5.186328e+000	1.246176e-001
5.496819627111265e-005	5.003387e+000	5.112201e+000	4.107475e-002
5.614007127111265e-005	5.003358e+000	5.033155e+000	-3.736877e-002
5.731194627111265e-005	5.002914e+000	4.959646e+000	-1.015587e-001
5.848382127111265e-005	5.002162e+000	4.900159e+000	-1.452374e-001
5.965569627111265e-005	5.001231e+000	4.859205e+000	-1.666408e-001
6.058437148058716e-005	5.000445e+000	4.841329e+000	-1.680150e-001
6.116802653878550e-005	4.999966e+000	4.838583e+000	-1.606922e-001
6.197093190611521e-005	4.999366e+000	4.844750e+000	-1.419430e-001
6.281140017208848e-005	4.998848e+000	4.860615e+000	-1.151853e-001
6.398327517208849e-005	4.998338e+000	4.894629e+000	-7.047272e-002
6.515515017208849e-005	4.998085e+000	4.936549e+000	-2.322865e-002
6.632702517208850e-005	4.998101e+000	4.981250e+000	2.113152e-002
6.749890017208850e-005	4.998352e+000	5.022820e+000	5.743170e-002
6.867077517208851e-005	4.998777e+000	5.056460e+000	8.213234e-002
6.984265017208852e-005	4.999304e+000	5.079620e+000	9.423637e-002
7.077132887711138e-005	4.999749e+000	5.089729e+000	9.501362e-002
7.135498780505434e-005	5.000020e+000	5.091282e+000	9.087276e-002
7.215789650633712e-005	5.000359e+000	5.087795e+000	8.026981e-002
7.299836259581581e-005	5.000652e+000	5.078823e+000	6.513786e-002
7.417023759581581e-005	5.000940e+000	5.059588e+000	3.985310e-002
7.534211259581582e-005	5.001083e+000	5.035882e+000	1.313591e-002
7.651398759581583e-005	5.001074e+000	5.010603e+000	-1.195002e-002
7.768586259581583e-005	5.000932e+000	4.987095e+000	-3.247786e-002
7.885773759581584e-005	5.000691e+000	4.968071e+000	-4.644680e-002
8.002961259581585e-005	5.000393e+000	4.954974e+000	-5.329132e-002
8.095829216018623e-005	5.000143e+000	4.949257e+000	-5.373096e-002
8.154195203946694e-005	4.999989e+000	4.948379e+000	-5.138922e-002
8.234486156036795e-005	4.999797e+000	4.950352e+000	-4.539251e-002
8.318532711477400e-005	4.999631e+000	4.955425e+000	-3.683615e-002
8.435720211477401e-005	4.999469e+000	4.966303e+000	-2.253675e-002
8.552907711477401e-005	4.999388e+000	4.979709e+000	-7.428169e-003
8.670095211477402e-005	4.999393e+000	4.994004e+000	6.757736e-003
8.787282711477403e-005	4.999473e+000	5.007298e+000	1.836681e-002
8.904470211477403e-005	4.999609e+000	5.018056e+000	2.626562e-002
9.021657711477404e-005	4.999777e+000	5.025463e+000	3.013659e-002
9.114525689041010e-005	4.999919e+000	5.028695e+000	3.038502e-002
9.172891700357151e-005	5.000006e+000	5.029192e+000	2.906084e-002
9.253182672597082e-005	5.000115e+000	5.028077e+000	2.567005e-002
9.337229214883164e-005	5.000208e+000	5.025208e+000	2.083111e-002
9.454416714883165e-005	5.000300e+000	5.019056e+000	1.274538e-002
9.571604214883166e-005	5.000346e+000	5.011475e+000	4.200935e-003
9.688791714883166e-005	5.000343e+000	5.003391e+000	-3.821850e-003
9.805979214883167e-005	5.000298e+000	4.995873e+000	-1.038647e-002
9.923166714883168e-005	5.000221e+000	4.989789e+000	-1.485348e-002
1.004035421488317e-004	5.000126e+000	4.985601e+000	-1.704216e-002
1.013322219764074e-004	5.000045e+000	4.983773e+000	-1.718283e-002
1.019158821470687e-004	4.999997e+000	4.983492e+000	-1.643419e-002
1.027187919190073e-004	4.999935e+000	4.984122e+000	-1.451683e-002
1.035592573095276e-004	4.999882e+000	4.985745e+000	-1.178026e-002
1.047311323095276e-004	4.999830e+000	4.989223e+000	-7.207870e-003
1.059030073095276e-004	4.999804e+000	4.993511e+000	-2.376080e-003
1.070748823095276e-004	4.999806e+000	4.998082e+000	2.161026e-003
1.082467573095276e-004	4.999831e+000	5.002334e+000	5.873203e-003
1.094186323095276e-004	4.999875e+000	5.005774e+000	8.399963e-003
1.105905073095276e-004	4.999929e+000	5.008143e+000	9.637833e-003
1.115191871498709e-004	4.999974e+000	5.009177e+000	9.716988e-003
1.121028473346661e-004	5.000002e+000	5.009336e+000	9.293556e-003
1.129057571187803e-004	5.000037e+000	5.008979e+000	8.209229e-003
1.137462225013507e-004	5.000067e+000	5.008061e+000	6.661892e-003
1.149180975013507e-004	5.000096e+000	5.006094e+000	4.075527e-003
1.160899725013507e-004	5.000111e+000	5.003670e+000	1.343250e-003
1.172618475013507e-004	5.000110e+000	5.001084e+000	-1.222610e-003
1.184337225013507e-004	5.000095e+000	4.998680e+000	-3.321648e-003
1.196055975013507e-004	5.000071e+000	4.996735e+000	-4.750252e-003
1.207774725013507e-004	5.000040e+000	4.995395e+000	-5.450249e-003
1.217061523448358e-004	5.000014e+000	4.994811e+000	-5.495071e-003
1.222898125331089e-004	4.999999e+000	4.994720e+000	-5.255699e-003
1.230927223202200e-004	4.999979e+000	4.994922e+000	-4.642487e-003
1.239331877008287e-004	4.999962e+000	4.995441e+000	-3.767490e-003
1.251050627008287e-004	4.999946e+000	4.996554e+000	-2.304554e-003
1.262769377008287e-004	4.999938e+000	4.997925e+000	-7.596016e-004
1.274488127008287e-004	4.999938e+000	4.999387e+000	6.909370e-004
1.286206877008287e-004	4.999946e+000	5.000746e+000	1.878262e-003
1.297925627008287e-004	4.999960e+000	5.001847e+000	2.686501e-003
1.309644377008288e-004	4.999977e+000	5.002604e+000	3.082275e-003
1.318931175450822e-004	4.999992e+000	5.002935e+000	3.107548e-003
1.324767777342037e-004	5.000001e+000	5.002985e+000	2.972126e-003
1.332796875220503e-004	5.000012e+000	5.002872e+000	2.625465e-003
1.341201529021820e-004	5.000021e+000	5.002578e+000	2.130508e-003
1.352920279021820e-004	5.000031e+000	5.001949e+000	1.303196e-003
1.364639029021820e-004	5.000035e+000	5.001173e+000	4.296303e-004
1.376357779021820e-004	5.000035e+000	5.000347e+000	-3.910065e-004
1.388076529021820e-004	5.000031e+000	4.999578e+000	-1.061916e-003
1.399795279021821e-004	5.000022e+000	4.998956e+000	-1.519203e-003
1.411514029021821e-004	5.000013e+000	4.998527e+000	-1.743317e-003
1.420800827466368e-004	5.000005e+000	4.998341e+000	-1.757145e-003
1.426637429359842e-004	5.000000e+000	4.998312e+000	-1.680851e-003
1.434666527240259e-004	4.999993e+000	4.998376e+000	-1.484394e-003
1.443071181040380e-004	4.999988e+000	4.998542e+000	-1.204491e-003
1.454789931040380e-004	4.999983e+000	4.998898e+000	-7.367134e-004
1.466508681040380e-004	4.999980e+000	4.999336e+000	-2.431870e-004
1.478227431040380e-004	4.999980e+000	4.999804e+000	2.207756e-004
1.489946181040380e-004	4.999983e+000	5.000238e+000	6.008148e-004
1.501664931040380e-004	4.999988e+000	5.000590e+000	8.587837e-004
1.513383681040381e-004	4.999993e+000	5.000833e+000	9.856224e-004
1.528507081378951e-004	5.000000e+000	5.000955e+000	9.503365e-004
1.536536179259556e-004	5.000004e+000	5.000918e+000	8.397102e-004
1.544940833059397e-004	5.000007e+000	5.000824e+000	6.814003e-004
1.556659583059397e-004	5.000010e+000	5.000623e+000	4.167557e-004
1.568378333059397e-004	5.000011e+000	5.000375e+000	1.373291e-004
1.580097083059397e-004	5.000011e+000	5.000111e+000	-1.249313e-004
1.591815833059397e-004	5.000010e+000	4.999865e+000	-3.395081e-004
1.603534583059397e-004	5.000007e+000	4.999666e+000	-4.854202e-004
1.615253333059397e-004	5.000004e+000	4.999529e+000	-5.574226e-004
1.630376733398880e-004	5.000000e+000	4.999460e+000	-5.373955e-004
1.638405831280017e-004	4.999998e+000	4.999481e+000	-4.749298e-004
1.646810485079755e-004	4.999996e+000	4.999534e+000	-3.857613e-004
1.658529235079755e-004	4.999994e+000	4.999648e+000	-2.360344e-004
1.670247985079755e-004	4.999993e+000	4.999788e+000	-7.772446e-005
1.681966735079755e-004	4.999993e+000	4.999937e+000	7.057190e-005
1.693685485079755e-004	4.999994e+000	5.000076e+000	1.921654e-004
1.705404235079756e-004	4.999996e+000	5.000189e+000	2.746582e-004
1.732246385417587e-004	5.000000e+000	5.000306e+000	3.042221e-004
1.740275483297569e-004	5.000001e+000	5.000294e+000	2.684593e-004
1.748680137097812e-004	5.000002e+000	5.000264e+000	2.179146e-004
1.760398887097812e-004	5.000003e+000	5.000199e+000	1.335144e-004
1.772117637097812e-004	5.000004e+000	5.000120e+000	4.434586e-005
1.783836387097812e-004	5.000004e+000	5.000035e+000	-4.005432e-005
1.795555137097812e-004	5.000003e+000	4.999957e+000	-1.082420e-004
1.807273887097812e-004	5.000002e+000	4.999893e+000	-1.554489e-004
1.842145135318769e-004	5.000000e+000	4.999834e+000	-1.521111e-004
1.850549789118475e-004	4.999999e+000	4.999851e+000	-1.235008e-004
1.862268539118475e-004	4.999998e+000	4.999887e+000	-7.581711e-005
1.873987289118475e-004	4.999998e+000	4.999932e+000	-2.479553e-005
1.885706039118475e-004	4.999998e+000	4.999980e+000	2.288818e-005
1.897424789118475e-004	4.999998e+000	5.000024e+000	6.151199e-005
1.909143539118475e-004	4.999999e+000	5.000060e+000	8.773804e-005
1.915325810835583e-004	4.999999e+000	5.000075e+000	9.589293e-005
1.921508082552690e-004	4.999999e+000	5.000086e+000	1.004667e-004
1.927690354269798e-004	4.999999e+000	5.000094e+000	1.014593e-004
1.933872625986906e-004	5.000000e+000	5.000097e+000	9.887073e-005
1.940054897704014e-004	5.000000e+000	5.000097e+000	9.270104e-005
1.946237169421122e-004	5.000000e+000	5.000092e+000	8.295020e-005
1.952419441138229e-004	5.000001e+000	5.000084e+000	6.961823e-005
1.964138191138229e-004	5.000001e+000	5.000064e+000	4.291534e-005
1.975856941138229e-004	5.000001e+000	5.000038e+000	1.382828e-005
1.979305950975625e-004	5.000001e+000	5.000030e+000	5.070044e-006
1.982754960813021e-004	5.000001e+000	5.000022e+000	-3.221084e-006
1.986203970650417e-004	5.000001e+000	5.000014e+000	-1.104511e-005
1.989652980487813e-004	5.000001e+000	5.000006e+000	-1.840202e-005
1.993101990325208e-004	5.000001e+000	4.999998e+000	-2.529183e-005
1.996551000162604e-004	5.000001e+000	4.999991e+000	-3.171454e-005
2.000000010000000e-004	5.000001e+000	4.999983e+000	-3.767014e-005
2.000000020000000e-004	1.044235e-006	4.999983e+000	4.999961e+000
2.000479368912370e-004	1.195893e-003	4.999243e+000	4.974129e+000
2.000958717824741e-004	2.381029e-003	4.997112e+000	4.947110e+000
2.001438066737111e-004	3.556454e-003	4.993591e+000	4.918906e+000
2.001917415649481e-004	4.722168e-003	4.988681e+000	4.889515e+000
2.002396764561852e-004	5.878170e-003	4.982380e+000	4.858939e+000
2.002876113474222e-004	7.024460e-003	4.974690e+000	4.827176e+000
2.003355462386592e-004	8.161039e-003	4.965610e+000	4.794228e+000
2.006710905573185e-004	1.576946e-002	4.866419e+000	4.535260e+000
2.013421791946369e-004	2.906738e-002	4.511002e+000	3.900587e+000
2.025140541946369e-004	4.683201e-002	3.569154e+000	2.585682e+000
2.036859291946369e-004	5.716677e-002	2.350419e+000	1.149917e+000
2.048578041946369e-004	5.959414e-002	9.802275e-001	-2.712494e-001
2.057165254558308e-004	5.632279e-002	-1.627260e-002	-1.199051e+000
2.065856848345651e-004	4.900422e-002	-9.324103e-001	-1.961499e+000
2.074329291667229e-004	3.908566e-002	-1.661605e+000	-2.482404e+000
2.086048041667229e-004	2.290543e-002	-2.378735e+000	-2.859749e+000
2.095913697978367e-004	8.506780e-003	-2.729401e+000	-2.908043e+000
2.101988487353198e-004	-1.371740e-004	-2.787803e+000	-2.784923e+000
2.110318929090090e-004	-1.092679e-002	-2.683443e+000	-2.453980e+000
2.118510722507873e-004	-1.971068e-002	-2.419770e+000	-2.005846e+000
2.130229472507873e-004	-2.858938e-002	-1.834601e+000	-1.234224e+000
2.141948222507873e-004	-3.324457e-002	-1.112178e+000	-4.140418e-001
2.151849810697010e-004	-3.358793e-002	-4.512713e-001	2.540752e-001
2.160255838183660e-004	-3.129703e-002	9.486985e-002	7.521074e-001
2.168744748317915e-004	-2.696932e-002	5.874220e-001	1.153778e+000
2.177974574683056e-004	-2.064558e-002	1.016090e+000	1.449647e+000
2.189693324683056e-004	-1.137367e-002	1.392334e+000	1.631181e+000
2.198906072743624e-004	-3.771240e-003	1.553463e+000	1.632659e+000
2.204943083404002e-004	1.045386e-003	1.574805e+000	1.552852e+000
2.212291760449430e-004	6.335760e-003	1.512725e+000	1.379674e+000
2.221316758306490e-004	1.166939e-002	1.338943e+000	1.093886e+000
2.233035508306490e-004	1.648367e-002	1.000963e+000	6.548061e-001
2.244754258306490e-004	1.888001e-002	5.877741e-001	1.912939e-001
2.254333705247196e-004	1.890144e-002	2.263207e-001	-1.706096e-001
2.262724582735336e-004	1.749577e-002	-7.947786e-002	-4.468890e-001
2.271187163127449e-004	1.497321e-002	-3.524045e-001	-6.668419e-001
2.280830022571208e-004	1.117283e-002	-5.981696e-001	-8.327989e-001
2.292548772571208e-004	5.899067e-003	-8.008904e-001	-9.247708e-001
2.301365537011527e-004	1.796054e-003	-8.797607e-001	-9.174779e-001
2.307711621264723e-004	-1.045619e-003	-8.879069e-001	-8.659489e-001
2.314244208775055e-004	-3.662476e-003	-8.527947e-001	-7.758827e-001
2.324165655284415e-004	-6.891455e-003	-7.393613e-001	-5.946407e-001
2.335884405284415e-004	-9.493716e-003	-5.443872e-001	-3.450192e-001
2.347603155284415e-004	-1.071144e-002	-3.082596e-001	-8.331935e-002
2.356840285746272e-004	-1.063078e-002	-1.113841e-001	1.118623e-001
2.365214553667857e-004	-9.773458e-003	5.967529e-002	2.649179e-001
2.373649442480685e-004	-8.305503e-003	2.107161e-001	3.851316e-001
2.383718406414194e-004	-6.025065e-003	3.512641e-001	4.777904e-001
2.395437156414194e-004	-3.027861e-003	4.600476e-001	5.236327e-001
2.403869901862978e-004	-8.172317e-004	4.980686e-001	5.152304e-001
2.410537194703209e-004	8.542799e-004	4.998716e-001	4.819317e-001
2.416559225656099e-004	2.189237e-003	4.790369e-001	4.330629e-001
2.427470555030491e-004	4.122450e-003	4.041064e-001	3.175350e-001
2.439189305030491e-004	5.495791e-003	2.906724e-001	1.752608e-001
2.450908055030491e-004	6.077200e-003	1.553497e-001	2.772851e-002
2.459648177771912e-004	5.966503e-003	5.023624e-002	-7.506033e-002
2.467997056829917e-004	5.434182e-003	-4.499963e-002	-1.591175e-001
2.476391998646366e-004	4.573346e-003	-1.278528e-001	-2.238931e-001
2.487056334559861e-004	3.179151e-003	-2.082806e-001	-2.750428e-001
2.498775084559861e-004	1.474143e-003	-2.652552e-001	-2.962122e-001
2.506706404195671e-004	3.058784e-004	-2.820839e-001	-2.885074e-001
2.513829107700372e-004	-6.821923e-004	-2.799242e-001	-2.655982e-001
2.520733586012766e-004	-1.509021e-003	-2.631478e-001	-2.314583e-001
2.532360939701268e-004	-2.576906e-003	-2.126565e-001	-1.585415e-001
2.544079689701267e-004	-3.231128e-003	-1.445526e-001	-7.669895e-002
2.555798439701267e-004	-3.432204e-003	-6.645179e-002	5.624495e-003
2.564338023139481e-004	-3.283595e-003	-9.174300e-003	5.978120e-002
2.573452839804006e-004	-2.874350e-003	4.704156e-002	1.074029e-001
2.581873673180730e-004	-2.327875e-003	8.998416e-002	1.388695e-001
2.593592423180730e-004	-1.411554e-003	1.330984e-001	1.627411e-001
2.603814012952682e-004	-5.578882e-004	1.554904e-001	1.672060e-001
2.610266073229696e-004	-2.948432e-005	1.597485e-001	1.603677e-001
2.618914793647445e-004	6.174188e-004	1.541219e-001	1.411561e-001
2.626873699115836e-004	1.111281e-003	1.397539e-001	1.164170e-001
2.638592449115836e-004	1.627921e-003	1.064718e-001	7.228545e-002
2.650311199115835e-004	1.903165e-003	6.521656e-002	2.525011e-002
2.660322183738895e-004	1.929217e-003	2.689906e-002	-1.361449e-002
2.668733376694881e-004	1.801770e-003	-4.523383e-003	-4.236055e-002
2.677231405266665e-004	1.556318e-003	-3.296513e-002	-6.564782e-002
2.686318320624996e-004	1.201511e-003	-5.741376e-002	-8.264550e-002
2.698037070624995e-004	6.709843e-004	-7.934362e-002	-9.343429e-002
2.707384453792134e-004	2.283066e-004	-8.903263e-002	-9.382707e-002
2.713310875145777e-004	-4.352430e-005	-9.038560e-002	-8.947159e-002
2.720948908005413e-004	-3.605254e-004	-8.684636e-002	-7.927533e-002
2.729694904338947e-004	-6.594660e-004	-7.735340e-002	-6.350461e-002
2.741413654338947e-004	-9.394791e-004	-5.810117e-002	-3.837211e-002
2.753132404338947e-004	-1.081382e-003	-3.449031e-002	-1.178129e-002
2.762819264176062e-004	-1.085800e-003	-1.352426e-002	9.277528e-003
2.771215418546732e-004	-1.007250e-003	4.072398e-003	2.522464e-002
2.779686918673744e-004	-8.639762e-004	1.983169e-002	3.797519e-002
