time	V(vin)	V(vout)
0.000000000000000e+000	0.000000e+000	0.000000e+000
7.443150171398559e-011	3.462082e-005	7.443150e-003
1.488630034279712e-010	1.358655e-004	1.488630e-002
2.232945051419568e-010	3.037339e-004	2.232945e-002
2.977260068559424e-010	5.382262e-004	2.977260e-002
3.721575085699279e-010	8.393423e-004	3.721575e-002
4.465890102839136e-010	1.207082e-003	4.465890e-002
5.210205119978990e-010	1.641446e-003	5.210205e-002
1.034045026043748e-009	6.118942e-003	1.034045e-001
1.880034664116231e-009	1.869535e-002	1.880035e-001
3.117362991939901e-009	4.760268e-002	3.117363e-001
4.852467483004533e-009	1.065100e-001	4.852467e-001
7.193407010172620e-009	2.142685e-001	7.193407e-001
1.031393205326713e-008	3.975569e-001	1.031393e+000
1.442330237710742e-008	6.892482e-001	1.442330e+000
1.986954812494821e-008	1.134162e+000	1.986955e+000
2.717006965861112e-008	1.791259e+000	2.717007e+000
3.726598082232902e-008	2.755206e+000	3.726598e+000
5.000000000000000e-008	4.004547e+000	5.000000e+000
5.127340191776710e-008	4.094119e+000	4.872660e+000
5.382020575330129e-008	4.207219e+000	4.617980e+000
5.891381342436969e-008	4.229972e+000	4.108619e+000
6.497909925598646e-008	4.015276e+000	3.502090e+000
7.248450662429687e-008	3.520107e+000	2.751549e+000
8.043683799493013e-008	2.852292e+000	1.956316e+000
9.050501961430062e-008	1.912174e+000	9.494981e-001
1.000000000000000e-007	9.899774e-001	0.000000e+000
1.009494980385699e-007	9.173521e-001	9.494980e-002
1.028484941157098e-007	8.098822e-001	2.848494e-001
1.062342047318885e-007	7.217365e-001	6.234205e-001
1.095679016251924e-007	7.431200e-001	9.567901e-001
1.133116247934505e-007	8.737629e-001	1.331162e+000
1.174716319125141e-007	1.108544e+000	1.747163e+000
1.229076168485797e-007	1.505148e+000	2.290762e+000
1.296636554347466e-007	2.079046e+000	2.966366e+000
1.389630901926525e-007	2.942673e+000	3.896309e+000
1.500000000000002e-007	4.010228e+000	5.000000e+000
1.511036909807350e-007	4.091086e+000	4.889631e+000
1.533110729422045e-007	4.200936e+000	4.668893e+000
1.577258368651436e-007	4.250515e+000	4.227417e+000
1.637879474250379e-007	4.074720e+000	3.621205e+000
1.709717213051527e-007	3.634878e+000	2.902828e+000
1.789274210944633e-007	2.986499e+000	2.107258e+000
1.886793626373583e-007	2.097512e+000	1.132064e+000
1.902965965463072e-007	1.940489e+000	9.703404e-001
1.919138304552560e-007	1.783021e+000	8.086170e-001
1.935310643642049e-007	1.625106e+000	6.468936e-001
1.951482982731537e-007	1.466746e+000	4.851702e-001
1.967655321821025e-007	1.307941e+000	3.234468e-001
1.983827660910514e-007	1.148690e+000	1.617234e-001
2.000000000000002e-007	9.889932e-001	0.000000e+000
2.004168295791584e-007	9.521482e-001	4.168296e-002
2.012504887374747e-007	8.875223e-001	1.250489e-001
2.029178070541073e-007	7.946684e-001	2.917807e-001
2.057248284446552e-007	7.208940e-001	5.724828e-001
2.093405616435203e-007	7.367111e-001	9.340562e-001
2.128060389211541e-007	8.489711e-001	1.280604e+000
2.171907212966866e-007	1.089614e+000	1.719072e+000
2.222210499969289e-007	1.449969e+000	2.222105e+000
2.291282194957730e-007	2.031230e+000	2.912822e+000
2.378379097341883e-007	2.835641e+000	3.783791e+000
2.500000000000004e-007	4.009782e+000	5.000000e+000
2.512162090265816e-007	4.096167e+000	4.878379e+000
2.536486270797440e-007	4.207891e+000	4.635137e+000
2.585134631860689e-007	4.239490e+000	4.148654e+000
2.645852229037176e-007	4.036395e+000	3.541478e+000
2.719866682884639e-007	3.558824e+000	2.801333e+000
2.799463823437159e-007	2.896330e+000	2.005362e+000
2.898312618405329e-007	1.976617e+000	1.016874e+000
3.000000000000004e-007	9.901317e-001	0.000000e+000
3.010168738159472e-007	9.137787e-001	1.016874e-001
3.030506214478407e-007	8.027546e-001	3.050621e-001
3.065330454891586e-007	7.211133e-001	6.533046e-001
3.099309537918494e-007	7.520699e-001	9.930954e-001
3.136917184659327e-007	8.920283e-001	1.369172e+000
3.179469391077185e-007	1.139961e+000	1.794694e+000
3.234856415003518e-007	1.551512e+000	2.348564e+000
3.304476536057182e-007	2.149491e+000	3.044765e+000
3.400039364753551e-007	3.041573e+000	4.000394e+000
3.500000000000006e-007	4.010524e+000	5.000000e+000
3.509996063524651e-007	4.085884e+000	4.900039e+000
3.529988190573942e-007	4.192787e+000	4.700118e+000
3.569972444672524e-007	4.255963e+000	4.300275e+000
3.630822782542597e-007	4.105962e+000	3.691772e+000
3.700394032213599e-007	3.702614e+000	2.996060e+000
3.780214389538847e-007	3.065655e+000	2.197856e+000
3.871762851729188e-007	2.239169e+000	1.282372e+000
3.919111912431833e-007	1.783227e+000	8.088809e-001
4.000000000000006e-007	9.888149e-001	0.000000e+000
4.010653603978794e-007	8.997826e-001	1.065360e-001
4.024858409283844e-007	8.145725e-001	2.485841e-001
4.052414873091377e-007	7.285935e-001	5.241487e-001
4.088347011637576e-007	7.272633e-001	8.834701e-001
4.122498785834438e-007	8.250659e-001	1.224988e+000
4.165055895839692e-007	1.046367e+000	1.650559e+000
4.213706300829423e-007	1.384210e+000	2.137063e+000
4.280073998024587e-007	1.932308e+000	2.800740e+000
4.363436053410842e-007	2.684148e+000	3.634361e+000
4.412127894736068e-007	3.150799e+000	4.121279e+000
4.500000000000008e-007	4.011986e+000	5.000000e+000
4.506702098395082e-007	4.071576e+000	4.932979e+000
4.515638229588515e-007	4.136576e+000	4.843618e+000
4.533510491975380e-007	4.222217e+000	4.664895e+000
4.569255016749110e-007	4.260242e+000	4.307450e+000
4.640744066296571e-007	4.060128e+000	3.592559e+000
4.705237885192395e-007	3.672365e+000	2.947621e+000
4.793706900763511e-007	2.947931e+000	2.062931e+000
4.879606571531839e-007	2.156387e+000	1.203934e+000
5.000000000000007e-007	9.907913e-001	5.329071e-015
5.012039342846824e-007	9.049239e-001	1.203934e-001
5.036118028540458e-007	7.857836e-001	3.611803e-001
5.072821775509158e-007	7.233455e-001	7.282178e-001
5.108508737392703e-007	7.792851e-001	1.085087e+000
5.146501444611594e-007	9.414970e-001	1.465014e+000
5.191749127133960e-007	1.224615e+000	1.917491e+000
5.249698389656533e-007	1.673388e+000	2.496984e+000
5.324938491773472e-007	2.332904e+000	3.249385e+000
5.397767409069947e-007	3.017701e+000	3.977674e+000
5.500000000000010e-007	4.010847e+000	5.000000e+000
5.510223259093016e-007	4.087405e+000	4.897768e+000
5.530669777279029e-007	4.194995e+000	4.693302e+000
5.571562813651054e-007	4.255494e+000	4.284372e+000
5.632172520422903e-007	4.100350e+000	3.678275e+000
5.702363076453045e-007	3.688479e+000	2.976369e+000
5.781994134745345e-007	3.050213e+000	2.180059e+000
5.874437076359522e-007	2.214041e+000	1.255629e+000
5.913830727083553e-007	1.834523e+000	8.616927e-001
6.000000000000009e-007	9.889433e-001	0.000000e+000
6.005252486763213e-007	9.438637e-001	5.252487e-002
6.015757460289622e-007	8.676223e-001	1.575746e-001
6.036767407342439e-007	7.658359e-001	3.676741e-001
6.065802361917254e-007	7.133253e-001	6.580236e-001
6.102271262225247e-007	7.579404e-001	1.022713e+000
6.138031288307886e-007	8.959626e-001	1.380313e+000
6.184165548384547e-007	1.170964e+000	1.841655e+000
6.237672992889612e-007	1.573350e+000	2.376730e+000
6.311654987900688e-007	2.214353e+000	3.116550e+000
6.405966886852495e-007	3.097665e+000	4.059669e+000
6.500000000000012e-007	4.010653e+000	5.000000e+000
6.509403311314763e-007	4.082707e+000	4.905967e+000
6.528209933944267e-007	4.187379e+000	4.717901e+000
6.565823179203274e-007	4.256606e+000	4.341768e+000
6.627383347546093e-007	4.120091e+000	3.726166e+000
6.695315897861220e-007	3.738765e+000	3.046841e+000
6.775729794001255e-007	3.104459e+000	2.242702e+000
6.864946895030650e-007	2.303116e+000	1.350531e+000
6.887360318029259e-007	2.090570e+000	1.126397e+000
7.000000000000011e-007	9.890454e-001	0.000000e+000
7.006781283597365e-007	9.332153e-001	6.781284e-002
7.020343850792071e-007	8.437048e-001	2.034385e-001
7.047468985181485e-007	7.381545e-001	4.746898e-001
7.078026296685772e-007	7.154086e-001	7.802629e-001
7.114852291190172e-007	7.977155e-001	1.148523e+000
7.152582827649758e-007	9.733568e-001	1.525828e+000
7.202060770480102e-007	1.297962e+000	2.020608e+000
7.260722208325990e-007	1.765192e+000	2.607222e+000
7.342107206398703e-007	2.488926e+000	3.421072e+000
7.400848755735406e-007	3.041165e+000	4.008488e+000
7.500000000000013e-007	4.012010e+000	5.000000e+000
7.510496926150156e-007	4.099873e+000	4.895031e+000
7.524492827683680e-007	4.184041e+000	4.755072e+000
7.552484630750727e-007	4.258943e+000	4.475154e+000
7.608468236884822e-007	4.190081e+000	3.915318e+000
7.675551195645449e-007	3.869190e+000	3.244488e+000
7.753360495338309e-007	3.294160e+000	2.466395e+000
7.838985835741680e-007	2.542897e+000	1.610142e+000
7.893839158754802e-007	2.024303e+000	1.061608e+000
8.000000000000013e-007	9.898905e-001	0.000000e+000
8.010616084124535e-007	9.111863e-001	1.061608e-001
8.031848252373577e-007	7.981334e-001	3.184825e-001
8.067351481945725e-007	7.210243e-001	6.735148e-001
8.101759730126909e-007	7.585247e-001	1.017597e+000
8.139509843667395e-007	9.048140e-001	1.395098e+000
8.182703755258790e-007	1.161698e+000	1.827038e+000
8.238823254916115e-007	1.583658e+000	2.388232e+000
8.309857415789479e-007	2.198156e+000	3.098574e+000
8.407240395610222e-007	3.110269e+000	4.072404e+000
8.500000000000016e-007	4.010664e+000	5.000000e+000
8.509275960438995e-007	4.081992e+000	4.907240e+000
8.527827881316954e-007	4.186132e+000	4.721721e+000
8.564931723072870e-007	4.256529e+000	4.350683e+000
8.626657249996110e-007	4.122990e+000	3.733428e+000
8.694231107828591e-007	3.746403e+000	3.057689e+000
8.774788013999927e-007	3.112576e+000	2.252120e+000
8.863501362684978e-007	2.316654e+000	1.364986e+000
8.887301934298059e-007	2.090991e+000	1.126981e+000
9.000000000000016e-007	9.890128e-001	0.000000e+000
9.006509692247595e-007	9.350213e-001	6.509692e-002
9.019529076742754e-007	8.476160e-001	1.952908e-001
9.045567845733071e-007	7.420255e-001	4.556785e-001
9.075839409714990e-007	7.139893e-001	7.583941e-001
9.112604627815359e-007	7.898352e-001	1.126046e+000
9.149952777510079e-007	9.586533e-001	1.499528e+000
9.198823015437130e-007	1.274324e+000	1.988230e+000
9.256513934822662e-007	1.729536e+000	2.565139e+000
9.336534794497065e-007	2.438147e+000	3.365348e+000
9.396197816735593e-007	3.001050e+000	3.961978e+000
9.500000000000017e-007	4.010803e+000	5.000000e+000
9.510380218326459e-007	4.088202e+000	4.896198e+000
9.531140654979344e-007	4.196274e+000	4.688593e+000
9.572661528285113e-007	4.254871e+000	4.273385e+000
9.633152346065393e-007	4.096123e+000	3.668477e+000
9.703737063617819e-007	3.678537e+000	2.962629e+000
9.783269835333256e-007	3.039102e+000	2.167302e+000
9.876300132416541e-007	2.196519e+000	1.236999e+000
9.910016779619079e-007	1.871604e+000	8.998322e-001
9.954972309222465e-007	1.431886e+000	4.502769e-001
1.000000000000000e-006	9.889565e-001	1.803002e-013
