time	V(vin)	V(vout)
0.000000000000000e+000	0.000000e+000	0.000000e+000
3.933235699926725e-011	1.229587e-004	2.458273e-002
7.866471399853449e-011	4.781532e-004	4.916545e-002
1.179970709978017e-010	1.065584e-003	7.374817e-002
1.573294279970690e-010	1.885250e-003	9.833090e-002
1.966617849963362e-010	2.937152e-003	1.229136e-001
2.359941419956035e-010	4.221290e-003	1.474963e-001
2.753264989948707e-010	5.737664e-003	1.720791e-001
5.487209450566577e-010	2.138697e-002	3.429506e-001
9.837927716640708e-010	6.357200e-002	6.148705e-001
1.625659043283295e-009	1.606996e-001	1.016037e+000
2.513213741497786e-009	3.545966e-001	1.570759e+000
3.718017393577122e-009	7.095031e-001	2.323761e+000
5.312381992492494e-009	1.281385e+000	3.320239e+000
5.890535969824703e-009	1.519190e+000	3.681585e+000
6.843692045335583e-009	1.951792e+000	4.277308e+000
8.000000000000001e-009	2.501912e+000	5.000000e+000
8.346892386399327e-009	2.655169e+000	4.783192e+000
8.809415568265093e-009	2.815904e+000	4.494115e+000
9.734461931996626e-009	3.004225e+000	3.915961e+000
1.158455465945969e-008	3.051868e+000	2.759653e+000
1.350649870271027e-008	2.822924e+000	1.558438e+000
1.371134140253329e-008	2.776615e+000	1.430412e+000
1.412102680217934e-008	2.656625e+000	1.174358e+000
1.494039760147142e-008	2.385947e+000	6.622515e-001
1.600000000000000e-008	2.001813e+000	0.000000e+000
1.631788071955857e-008	1.889962e+000	1.986755e-001
1.674172167897001e-008	1.774593e+000	4.635760e-001
1.758940359779287e-008	1.642607e+000	9.933773e-001
1.906459213748664e-008	1.627078e+000	1.915370e+000
2.065681887312445e-008	1.843703e+000	2.910512e+000
2.211765999083003e-008	2.236475e+000	3.823538e+000
2.400000000000004e-008	2.897950e+000	5.000000e+000
2.418823400091704e-008	2.967653e+000	4.882354e+000
2.456470200275104e-008	3.087380e+000	4.647061e+000
2.531763800641904e-008	3.241042e+000	4.176476e+000
2.682351001375505e-008	3.299624e+000	3.235306e+000
2.902019093531039e-008	3.047792e+000	1.862381e+000
2.987317399676948e-008	2.848920e+000	1.329266e+000
3.029403387708183e-008	2.716073e+000	1.066229e+000
3.113575363770653e-008	2.414208e+000	5.401540e-001
3.200000000000004e-008	2.080714e+000	0.000000e+000
3.225927390868809e-008	1.983316e+000	1.620462e-001
3.260497245360548e-008	1.876792e+000	3.781078e-001
3.329636954344028e-008	1.737841e+000	8.102310e-001
3.467916372310988e-008	1.658136e+000	1.674477e+000
3.630172092070890e-008	1.819408e+000	2.688576e+000
3.808479347670870e-008	2.259615e+000	3.802996e+000
4.000000000000007e-008	2.912001e+000	5.000000e+000
4.019152065232920e-008	2.982249e+000	4.880300e+000
4.057456195698747e-008	3.102470e+000	4.640899e+000
4.134064456630402e-008	3.254681e+000	4.162097e+000
4.287280978493711e-008	3.305725e+000	3.204494e+000
4.506080259809108e-008	3.046257e+000	1.836998e+000
4.585321061253224e-008	2.857920e+000	1.341743e+000
4.641518397111773e-008	2.680688e+000	9.905100e-001
4.707826137657737e-008	2.446838e+000	5.760866e-001
4.800000000000007e-008	2.082887e+000	0.000000e+000
4.836212570514836e-008	1.949662e+000	2.263286e-001
4.877598365388926e-008	1.833939e+000	4.849898e-001
4.960369955137105e-008	1.703196e+000	1.002312e+000
5.125913134633465e-008	1.686748e+000	2.036957e+000
5.276844189610068e-008	1.888636e+000	2.980276e+000
5.397681895747296e-008	2.211641e+000	3.735512e+000
5.600000000000010e-008	2.913261e+000	5.000000e+000
5.620231810425282e-008	2.986869e+000	4.873551e+000
5.660695431275824e-008	3.111619e+000	4.620654e+000
5.741622672976910e-008	3.263930e+000	4.114858e+000
5.903477156379081e-008	3.298249e+000	3.103268e+000
6.117863399099485e-008	3.026247e+000	1.763354e+000
6.179635942560834e-008	2.873141e+000	1.377275e+000
6.276454913077312e-008	2.547668e+000	7.721568e-001
6.400000000000010e-008	2.084555e+000	1.776357e-015
6.437063526076819e-008	1.951176e+000	2.316470e-001
6.486481560845898e-008	1.819038e+000	5.405098e-001
6.585317630384056e-008	1.677959e+000	1.158235e+000
6.731114437609996e-008	1.689360e+000	2.069465e+000
6.897105196058506e-008	1.937771e+000	3.106907e+000
7.011208167935109e-008	2.250396e+000	3.820051e+000
7.200000000000014e-008	2.915062e+000	5.000000e+000
7.218879183206505e-008	2.984330e+000	4.882005e+000
7.256637549619487e-008	3.103142e+000	4.646015e+000
7.332154282445448e-008	3.254802e+000	4.174036e+000
7.483187748097372e-008	3.309094e+000	3.230077e+000
7.703286784535118e-008	3.051977e+000	1.854458e+000
7.786716815964785e-008	2.855631e+000	1.333020e+000
7.833139937140682e-008	2.708655e+000	1.042875e+000
7.907153757648222e-008	2.442880e+000	5.802890e-001
8.000000000000013e-008	2.084163e+000	1.776357e-015
8.027853872705551e-008	1.980151e+000	1.740867e-001
8.064992369646269e-008	1.868218e+000	4.062023e-001
8.139269363527703e-008	1.728542e+000	8.704335e-001
8.287823351290572e-008	1.665675e+000	1.798896e+000
8.445245260093064e-008	1.847785e+000	2.782783e+000
8.631951803322258e-008	2.330885e+000	3.949699e+000
8.800000000000018e-008	2.913494e+000	5.000000e+000
8.816804819667794e-008	2.976088e+000	4.894970e+000
8.850414459003347e-008	3.085440e+000	4.684910e+000
8.917633737674450e-008	3.234303e+000	4.264789e+000
9.052072295016657e-008	3.323765e+000	3.424548e+000
9.254050799678695e-008	3.139398e+000	2.162183e+000
9.383599976447715e-008	2.826482e+000	1.352500e+000
9.600000000000017e-008	2.088855e+000	1.776357e-015
9.621640002355248e-008	2.010802e+000	1.352500e-001
9.664920007065709e-008	1.880184e+000	4.057500e-001
9.751480016486629e-008	1.715592e+000	9.467501e-001
9.878381446062014e-008	1.664425e+000	1.739884e+000
1.005311053760274e-007	1.868467e+000	2.831941e+000
1.022306680287898e-007	2.302734e+000	3.894167e+000
1.040000000000002e-007	2.915445e+000	5.000000e+000
1.041769331971213e-007	2.980881e+000	4.889417e+000
1.045307995913633e-007	3.094303e+000	4.668250e+000
1.052385323798475e-007	3.244575e+000	4.225917e+000
1.066539979568159e-007	3.314314e+000	3.341251e+000
1.089091843178297e-007	3.071324e+000	1.931760e+000
1.099563376582721e-007	2.835440e+000	1.277289e+000
1.103108480323693e-007	2.719969e+000	1.055720e+000
1.107160027456232e-007	2.579018e+000	8.024983e-001
1.111896905734924e-007	2.402712e+000	5.064434e-001
1.120000000000002e-007	2.084352e+000	1.776357e-015
1.122430928279526e-007	1.992269e+000	1.519330e-001
1.125672165985557e-007	1.890155e+000	3.545104e-001
1.132154641397620e-007	1.752012e+000	7.596651e-001
1.145119592221745e-007	1.659268e+000	1.569975e+000
1.161816368452306e-007	1.800997e+000	2.613523e+000
1.165081659694615e-007	1.842673e+000	2.817604e+000
1.168346950936925e-007	1.895972e+000	3.021684e+000
1.171612242179234e-007	1.960894e+000	3.225765e+000
1.174877533421543e-007	2.037439e+000	3.429846e+000
1.178142824663853e-007	2.125608e+000	3.633927e+000
1.181408115906162e-007	2.225399e+000	3.838007e+000
1.184673407148471e-007	2.336814e+000	4.042088e+000
1.190422949539493e-007	2.546484e+000	4.401434e+000
1.200000000000002e-007	2.917486e+000	5.000000e+000
1.202873115138155e-007	3.024307e+000	4.820430e+000
1.206703935322359e-007	3.138379e+000	4.581004e+000
1.214365575690766e-007	3.277633e+000	4.102151e+000
1.229688856427581e-007	3.307138e+000	3.144446e+000
1.251796926623361e-007	3.025712e+000	1.762692e+000
1.258427090416376e-007	2.862423e+000	1.348307e+000
1.266739672413974e-007	2.583140e+000	8.287705e-001
1.280000000000003e-007	2.086337e+000	0.000000e+000
1.283978098275811e-007	1.944619e+000	2.486311e-001
1.289282229310223e-007	1.807781e+000	5.801393e-001
1.299890491379046e-007	1.671662e+000	1.243156e+000
1.315021664914190e-007	1.708571e+000	2.188854e+000
1.331625486266579e-007	1.976614e+000	3.226593e+000
1.340625970720482e-007	2.206238e+000	3.789123e+000
1.344745151835631e-007	2.341897e+000	4.046572e+000
1.350237393322496e-007	2.541969e+000	4.389837e+000
1.360000000000003e-007	2.919549e+000	5.000000e+000
1.362928782003255e-007	3.028080e+000	4.816951e+000
1.366833824674257e-007	3.143399e+000	4.572886e+000
1.374643910016262e-007	3.282138e+000	4.084755e+000
1.390264080700272e-007	3.305087e+000	3.108495e+000
1.412223591227650e-007	3.018721e+000	1.736026e+000
1.418225898663852e-007	2.868698e+000	1.360881e+000
1.427995385127599e-007	2.538137e+000	7.502884e-001
1.440000000000003e-007	2.086530e+000	0.000000e+000
1.443601384461724e-007	1.956241e+000	2.250865e-001
1.448403230410686e-007	1.825862e+000	5.252019e-001
1.458006922308608e-007	1.682960e+000	1.125433e+000
1.472373472257789e-007	1.684554e+000	2.023342e+000
1.489031533178075e-007	1.921810e+000	3.064471e+000
1.500000000000000e-007	2.184645e+000	3.750000e+000
