Freq.	mag(V(n002)/V(n006))
1.00000000000000e+001	1.05984275965932e-002,0.00000000000000e+000
1.49949949949950e+001	1.58922208067869e-002,0.00000000000000e+000
1.99899899899900e+001	2.11858748504674e-002,0.00000000000000e+000
2.49849849849850e+001	2.64793433792064e-002,0.00000000000000e+000
2.99799799799800e+001	3.17725800526629e-002,0.00000000000000e+000
3.49749749749750e+001	3.70655385406026e-002,0.00000000000000e+000
3.99699699699700e+001	4.23581725249161e-002,0.00000000000000e+000
4.49649649649650e+001	4.76504357016363e-002,0.00000000000000e+000
4.99599599599600e+001	5.29422817829535e-002,0.00000000000000e+000
5.49549549549550e+001	5.82336644992295e-002,0.00000000000000e+000
5.99499499499500e+001	6.35245376010098e-002,0.00000000000000e+000
6.49449449449450e+001	6.88148548610337e-002,0.00000000000000e+000
6.99399399399399e+001	7.41045700762420e-002,0.00000000000000e+000
7.49349349349349e+001	7.93936370697821e-002,0.00000000000000e+000
7.99299299299299e+001	8.46820096930112e-002,0.00000000000000e+000
8.49249249249249e+001	8.99696418274956e-002,0.00000000000000e+000
8.99199199199199e+001	9.52564873870079e-002,0.00000000000000e+000
9.49149149149149e+001	1.00542500319520e-001,0.00000000000000e+000
9.99099099099099e+001	1.05827634609193e-001,0.00000000000000e+000
1.04904904904905e+002	1.11111844278365e-001,0.00000000000000e+000
1.09899899899900e+002	1.16395083389532e-001,0.00000000000000e+000
1.14894894894895e+002	1.21677306047325e-001,0.00000000000000e+000
1.19889889889890e+002	1.26958466400488e-001,0.00000000000000e+000
1.24884884884885e+002	1.32238518643846e-001,0.00000000000000e+000
1.29879879879880e+002	1.37517417020267e-001,0.00000000000000e+000
1.34874874874875e+002	1.42795115822627e-001,0.00000000000000e+000
1.39869869869870e+002	1.48071569395762e-001,0.00000000000000e+000
1.44864864864865e+002	1.53346732138418e-001,0.00000000000000e+000
1.49859859859860e+002	1.58620558505198e-001,0.00000000000000e+000
1.54854854854855e+002	1.63893003008498e-001,0.00000000000000e+000
1.59849849849850e+002	1.69164020220439e-001,0.00000000000000e+000
1.64844844844845e+002	1.74433564774800e-001,0.00000000000000e+000
1.69839839839840e+002	1.79701591368932e-001,0.00000000000000e+000
1.74834834834835e+002	1.84968054765675e-001,0.00000000000000e+000
1.79829829829830e+002	1.90232909795267e-001,0.00000000000000e+000
1.84824824824825e+002	1.95496111357243e-001,0.00000000000000e+000
1.89819819819820e+002	2.00757614422333e-001,0.00000000000000e+000
1.94814814814815e+002	2.06017374034342e-001,0.00000000000000e+000
1.99809809809810e+002	2.11275345312037e-001,0.00000000000000e+000
2.04804804804805e+002	2.16531483451016e-001,0.00000000000000e+000
2.09799799799800e+002	2.21785743725571e-001,0.00000000000000e+000
2.14794794794795e+002	2.27038081490548e-001,0.00000000000000e+000
2.19789789789790e+002	2.32288452183194e-001,0.00000000000000e+000
2.24784784784785e+002	2.37536811324996e-001,0.00000000000000e+000
2.29779779779780e+002	2.42783114523518e-001,0.00000000000000e+000
2.34774774774775e+002	2.48027317474219e-001,0.00000000000000e+000
2.39769769769770e+002	2.53269375962272e-001,0.00000000000000e+000
2.44764764764764e+002	2.58509245864367e-001,0.00000000000000e+000
2.49759759759759e+002	2.63746883150510e-001,0.00000000000000e+000
2.54754754754754e+002	2.68982243885812e-001,0.00000000000000e+000
2.59749749749749e+002	2.74215284232262e-001,0.00000000000000e+000
2.64744744744744e+002	2.79445960450504e-001,0.00000000000000e+000
2.69739739739739e+002	2.84674228901588e-001,0.00000000000000e+000
2.74734734734735e+002	2.89900046048726e-001,0.00000000000000e+000
2.79729729729730e+002	2.95123368459027e-001,0.00000000000000e+000
2.84724724724725e+002	3.00344152805227e-001,0.00000000000000e+000
2.89719719719720e+002	3.05562355867411e-001,0.00000000000000e+000
2.94714714714715e+002	3.10777934534716e-001,0.00000000000000e+000
2.99709709709710e+002	3.15990845807035e-001,0.00000000000000e+000
3.04704704704705e+002	3.21201046796697e-001,0.00000000000000e+000
3.09699699699700e+002	3.26408494730149e-001,0.00000000000000e+000
3.14694694694695e+002	3.31613146949619e-001,0.00000000000000e+000
3.19689689689690e+002	3.36814960914769e-001,0.00000000000000e+000
3.24684684684685e+002	3.42013894204338e-001,0.00000000000000e+000
3.29679679679680e+002	3.47209904517773e-001,0.00000000000000e+000
3.34674674674675e+002	3.52402949676848e-001,0.00000000000000e+000
3.39669669669670e+002	3.57592987627274e-001,0.00000000000000e+000
3.44664664664665e+002	3.62779976440291e-001,0.00000000000000e+000
3.49659659659660e+002	3.67963874314254e-001,0.00000000000000e+000
3.54654654654655e+002	3.73144639576206e-001,0.00000000000000e+000
3.59649649649650e+002	3.78322230683432e-001,0.00000000000000e+000
3.64644644644645e+002	3.83496606225012e-001,0.00000000000000e+000
3.69639639639640e+002	3.88667724923352e-001,0.00000000000000e+000
3.74634634634635e+002	3.93835545635707e-001,0.00000000000000e+000
3.79629629629630e+002	3.99000027355690e-001,0.00000000000000e+000
3.84624624624625e+002	4.04161129214765e-001,0.00000000000000e+000
3.89619619619620e+002	4.09318810483736e-001,0.00000000000000e+000
3.94614614614615e+002	4.14473030574212e-001,0.00000000000000e+000
3.99609609609610e+002	4.19623749040067e-001,0.00000000000000e+000
4.04604604604605e+002	4.24770925578881e-001,0.00000000000000e+000
4.09599599599600e+002	4.29914520033372e-001,0.00000000000000e+000
4.14594594594595e+002	4.35054492392812e-001,0.00000000000000e+000
4.19589589589590e+002	4.40190802794430e-001,0.00000000000000e+000
4.24584584584585e+002	4.45323411524800e-001,0.00000000000000e+000
4.29579579579580e+002	4.50452279021218e-001,0.00000000000000e+000
4.34574574574575e+002	4.55577365873065e-001,0.00000000000000e+000
4.39569569569570e+002	4.60698632823147e-001,0.00000000000000e+000
4.44564564564565e+002	4.65816040769041e-001,0.00000000000000e+000
4.49559559559560e+002	4.70929550764400e-001,0.00000000000000e+000
4.54554554554555e+002	4.76039124020271e-001,0.00000000000000e+000
4.59549549549550e+002	4.81144721906375e-001,0.00000000000000e+000
4.64544544544545e+002	4.86246305952389e-001,0.00000000000000e+000
4.69539539539540e+002	4.91343837849208e-001,0.00000000000000e+000
4.74534534534535e+002	4.96437279450187e-001,0.00000000000000e+000
4.79529529529530e+002	5.01526592772380e-001,0.00000000000000e+000
4.84524524524525e+002	5.06611739997751e-001,0.00000000000000e+000
4.89519519519520e+002	5.11692683474383e-001,0.00000000000000e+000
4.94514514514515e+002	5.16769385717661e-001,0.00000000000000e+000
4.99509509509510e+002	5.21841809411449e-001,0.00000000000000e+000
5.04504504504505e+002	5.26909917409243e-001,0.00000000000000e+000
5.09499499499500e+002	5.31973672735320e-001,0.00000000000000e+000
5.14494494494495e+002	5.37033038585863e-001,0.00000000000000e+000
5.19489489489490e+002	5.42087978330070e-001,0.00000000000000e+000
5.24484484484485e+002	5.47138455511259e-001,0.00000000000000e+000
5.29479479479480e+002	5.52184433847945e-001,0.00000000000000e+000
5.34474474474475e+002	5.57225877234906e-001,0.00000000000000e+000
5.39469469469470e+002	5.62262749744241e-001,0.00000000000000e+000
5.44464464464465e+002	5.67295015626396e-001,0.00000000000000e+000
5.49459459459460e+002	5.72322639311195e-001,0.00000000000000e+000
5.54454454454455e+002	5.77345585408838e-001,0.00000000000000e+000
5.59449449449450e+002	5.82363818710892e-001,0.00000000000000e+000
5.64444444444445e+002	5.87377304191268e-001,0.00000000000000e+000
5.69439439439440e+002	5.92386007007176e-001,0.00000000000000e+000
5.74434434434434e+002	5.97389892500069e-001,0.00000000000000e+000
5.79429429429429e+002	6.02388926196572e-001,0.00000000000000e+000
5.84424424424424e+002	6.07383073809389e-001,0.00000000000000e+000
5.89419419419419e+002	6.12372301238202e-001,0.00000000000000e+000
5.94414414414414e+002	6.17356574570550e-001,0.00000000000000e+000
5.99409409409409e+002	6.22335860082695e-001,0.00000000000000e+000
6.04404404404404e+002	6.27310124240468e-001,0.00000000000000e+000
6.09399399399399e+002	6.32279333700100e-001,0.00000000000000e+000
6.14394394394394e+002	6.37243455309046e-001,0.00000000000000e+000
6.19389389389389e+002	6.42202456106779e-001,0.00000000000000e+000
6.24384384384384e+002	6.47156303325577e-001,0.00000000000000e+000
6.29379379379379e+002	6.52104964391294e-001,0.00000000000000e+000
6.34374374374374e+002	6.57048406924111e-001,0.00000000000000e+000
6.39369369369369e+002	6.61986598739280e-001,0.00000000000000e+000
6.44364364364364e+002	6.66919507847836e-001,0.00000000000000e+000
6.49359359359359e+002	6.71847102457312e-001,0.00000000000000e+000
6.54354354354354e+002	6.76769350972423e-001,0.00000000000000e+000
6.59349349349349e+002	6.81686221995746e-001,0.00000000000000e+000
6.64344344344344e+002	6.86597684328375e-001,0.00000000000000e+000
6.69339339339339e+002	6.91503706970563e-001,0.00000000000000e+000
6.74334334334334e+002	6.96404259122352e-001,0.00000000000000e+000
6.79329329329329e+002	7.01299310184182e-001,0.00000000000000e+000
6.84324324324323e+002	7.06188829757490e-001,0.00000000000000e+000
6.89319319319318e+002	7.11072787645286e-001,0.00000000000000e+000
6.94314314314313e+002	7.15951153852716e-001,0.00000000000000e+000
6.99309309309308e+002	7.20823898587617e-001,0.00000000000000e+000
7.04304304304303e+002	7.25690992261044e-001,0.00000000000000e+000
7.09299299299298e+002	7.30552405487786e-001,0.00000000000000e+000
7.14294294294293e+002	7.35408109086875e-001,0.00000000000000e+000
7.19289289289288e+002	7.40258074082063e-001,0.00000000000000e+000
7.24284284284283e+002	7.45102271702296e-001,0.00000000000000e+000
7.29279279279278e+002	7.49940673382173e-001,0.00000000000000e+000
7.34274274274273e+002	7.54773250762378e-001,0.00000000000000e+000
7.39269269269268e+002	7.59599975690110e-001,0.00000000000000e+000
7.44264264264263e+002	7.64420820219485e-001,0.00000000000000e+000
7.49259259259258e+002	7.69235756611937e-001,0.00000000000000e+000
7.54254254254253e+002	7.74044757336587e-001,0.00000000000000e+000
7.59249249249248e+002	7.78847795070617e-001,0.00000000000000e+000
7.64244244244243e+002	7.83644842699603e-001,0.00000000000000e+000
7.69239239239238e+002	7.88435873317860e-001,0.00000000000000e+000
7.74234234234233e+002	7.93220860228750e-001,0.00000000000000e+000
7.79229229229228e+002	7.97999776944991e-001,0.00000000000000e+000
7.84224224224223e+002	8.02772597188937e-001,0.00000000000000e+000
7.89219219219218e+002	8.07539294892853e-001,0.00000000000000e+000
7.94214214214212e+002	8.12299844199176e-001,0.00000000000000e+000
7.99209209209207e+002	8.17054219460749e-001,0.00000000000000e+000
8.04204204204202e+002	8.21802395241054e-001,0.00000000000000e+000
8.09199199199197e+002	8.26544346314425e-001,0.00000000000000e+000
8.14194194194192e+002	8.31280047666240e-001,0.00000000000000e+000
8.19189189189187e+002	8.36009474493112e-001,0.00000000000000e+000
8.24184184184182e+002	8.40732602203050e-001,0.00000000000000e+000
8.29179179179177e+002	8.45449406415622e-001,0.00000000000000e+000
8.34174174174172e+002	8.50159862962085e-001,0.00000000000000e+000
8.39169169169167e+002	8.54863947885520e-001,0.00000000000000e+000
8.44164164164162e+002	8.59561637440936e-001,0.00000000000000e+000
8.49159159159157e+002	8.64252908095370e-001,0.00000000000000e+000
8.54154154154152e+002	8.68937736527970e-001,0.00000000000000e+000
8.59149149149147e+002	8.73616099630062e-001,0.00000000000000e+000
8.64144144144142e+002	8.78287974505210e-001,0.00000000000000e+000
8.69139139139137e+002	8.82953338469250e-001,0.00000000000000e+000
8.74134134134132e+002	8.87612169050321e-001,0.00000000000000e+000
8.79129129129127e+002	8.92264443988879e-001,0.00000000000000e+000
8.84124124124122e+002	8.96910141237694e-001,0.00000000000000e+000
8.89119119119117e+002	9.01549238961839e-001,0.00000000000000e+000
8.94114114114112e+002	9.06181715538661e-001,0.00000000000000e+000
8.99109109109107e+002	9.10807549557741e-001,0.00000000000000e+000
9.04104104104101e+002	9.15426719820841e-001,0.00000000000000e+000
9.09099099099096e+002	9.20039205341831e-001,0.00000000000000e+000
9.14094094094091e+002	9.24644985346620e-001,0.00000000000000e+000
9.19089089089086e+002	9.29244039273049e-001,0.00000000000000e+000
9.24084084084081e+002	9.33836346770797e-001,0.00000000000000e+000
9.29079079079076e+002	9.38421887701251e-001,0.00000000000000e+000
9.34074074074071e+002	9.43000642137382e-001,0.00000000000000e+000
9.39069069069066e+002	9.47572590363595e-001,0.00000000000000e+000
9.44064064064061e+002	9.52137712875579e-001,0.00000000000000e+000
9.49059059059056e+002	9.56695990380124e-001,0.00000000000000e+000
9.54054054054051e+002	9.61247403794952e-001,0.00000000000000e+000
9.59049049049046e+002	9.65791934248516e-001,0.00000000000000e+000
9.64044044044041e+002	9.70329563079795e-001,0.00000000000000e+000
9.69039039039036e+002	9.74860271838073e-001,0.00000000000000e+000
9.74034034034031e+002	9.79384042282710e-001,0.00000000000000e+000
9.79029029029026e+002	9.83900856382901e-001,0.00000000000000e+000
9.84024024024021e+002	9.88410696317416e-001,0.00000000000000e+000
9.89019019019016e+002	9.92913544474340e-001,0.00000000000000e+000
9.94014014014011e+002	9.97409383450788e-001,0.00000000000000e+000
9.99009009009006e+002	1.00189819605263e+000,0.00000000000000e+000
1.00400400400400e+003	1.00637996529416e+000,0.00000000000000e+000
1.00899899899900e+003	1.01085467439781e+000,0.00000000000000e+000
1.01399399399399e+003	1.01532230679385e+000,0.00000000000000e+000
1.01898898898899e+003	1.01978284611999e+000,0.00000000000000e+000
1.02398398398398e+003	1.02423627622106e+000,0.00000000000000e+000
1.02897897897898e+003	1.02868258114871e+000,0.00000000000000e+000
1.03397397397397e+003	1.03312174516094e+000,0.00000000000000e+000
1.03896896896897e+003	1.03755375272182e+000,0.00000000000000e+000
1.04396396396396e+003	1.04197858850103e+000,0.00000000000000e+000
1.04895895895896e+003	1.04639623737351e+000,0.00000000000000e+000
1.05395395395395e+003	1.05080668441903e+000,0.00000000000000e+000
1.05894894894895e+003	1.05520991492176e+000,0.00000000000000e+000
1.06394394394394e+003	1.05960591436986e+000,0.00000000000000e+000
1.06893893893894e+003	1.06399466845504e+000,0.00000000000000e+000
1.07393393393393e+003	1.06837616307209e+000,0.00000000000000e+000
1.07892892892893e+003	1.07275038431844e+000,0.00000000000000e+000
1.08392392392392e+003	1.07711731849370e+000,0.00000000000000e+000
1.08891891891892e+003	1.08147695209916e+000,0.00000000000000e+000
1.09391391391391e+003	1.08582927183729e+000,0.00000000000000e+000
1.09890890890891e+003	1.09017426461130e+000,0.00000000000000e+000
1.10390390390390e+003	1.09451191752457e+000,0.00000000000000e+000
1.10889889889890e+003	1.09884221788017e+000,0.00000000000000e+000
1.11389389389389e+003	1.10316515318032e+000,0.00000000000000e+000
1.11888888888889e+003	1.10748071112588e+000,0.00000000000000e+000
1.12388388388388e+003	1.11178887961578e+000,0.00000000000000e+000
1.12887887887888e+003	1.11608964674648e+000,0.00000000000000e+000
1.13387387387387e+003	1.12038300081142e+000,0.00000000000000e+000
1.13886886886887e+003	1.12466893030042e+000,0.00000000000000e+000
1.14386386386386e+003	1.12894742389916e+000,0.00000000000000e+000
1.14885885885886e+003	1.13321847048853e+000,0.00000000000000e+000
1.15385385385385e+003	1.13748205914410e+000,0.00000000000000e+000
1.15884884884885e+003	1.14173817913548e+000,0.00000000000000e+000
1.16384384384384e+003	1.14598681992570e+000,0.00000000000000e+000
1.16883883883884e+003	1.15022797117065e+000,0.00000000000000e+000
1.17383383383383e+003	1.15446162271840e+000,0.00000000000000e+000
1.17882882882883e+003	1.15868776460859e+000,0.00000000000000e+000
1.18382382382382e+003	1.16290638707180e+000,0.00000000000000e+000
1.18881881881882e+003	1.16711748052888e+000,0.00000000000000e+000
1.19381381381381e+003	1.17132103559034e+000,0.00000000000000e+000
1.19880880880881e+003	1.17551704305563e+000,0.00000000000000e+000
1.20380380380380e+003	1.17970549391253e+000,0.00000000000000e+000
1.20879879879880e+003	1.18388637933643e+000,0.00000000000000e+000
1.21379379379379e+003	1.18805969068968e+000,0.00000000000000e+000
1.21878878878879e+003	1.19222541952088e+000,0.00000000000000e+000
1.22378378378378e+003	1.19638355756421e+000,0.00000000000000e+000
1.22877877877878e+003	1.20053409673872e+000,0.00000000000000e+000
1.23377377377377e+003	1.20467702914759e+000,0.00000000000000e+000
1.23876876876877e+003	1.20881234707749e+000,0.00000000000000e+000
1.24376376376376e+003	1.21294004299778e+000,0.00000000000000e+000
1.24875875875876e+003	1.21706010955983e+000,0.00000000000000e+000
1.25375375375375e+003	1.22117253959629e+000,0.00000000000000e+000
1.25874874874875e+003	1.22527732612035e+000,0.00000000000000e+000
1.26374374374374e+003	1.22937446232497e+000,0.00000000000000e+000
1.26873873873874e+003	1.23346394158216e+000,0.00000000000000e+000
1.27373373373373e+003	1.23754575744224e+000,0.00000000000000e+000
1.27872872872873e+003	1.24161990363302e+000,0.00000000000000e+000
1.28372372372372e+003	1.24568637405913e+000,0.00000000000000e+000
1.28871871871872e+003	1.24974516280114e+000,0.00000000000000e+000
1.29371371371371e+003	1.25379626411489e+000,0.00000000000000e+000
1.29870870870871e+003	1.25783967243063e+000,0.00000000000000e+000
1.30370370370370e+003	1.26187538235231e+000,0.00000000000000e+000
1.30869869869870e+003	1.26590338865671e+000,0.00000000000000e+000
1.31369369369369e+003	1.26992368629272e+000,0.00000000000000e+000
1.31868868868869e+003	1.27393627038048e+000,0.00000000000000e+000
1.32368368368368e+003	1.27794113621065e+000,0.00000000000000e+000
1.32867867867868e+003	1.28193827924353e+000,0.00000000000000e+000
1.33367367367367e+003	1.28592769510829e+000,0.00000000000000e+000
1.33866866866867e+003	1.28990937960216e+000,0.00000000000000e+000
1.34366366366366e+003	1.29388332868958e+000,0.00000000000000e+000
1.34865865865866e+003	1.29784953850141e+000,0.00000000000000e+000
1.35365365365365e+003	1.30180800533409e+000,0.00000000000000e+000
1.35864864864865e+003	1.30575872564882e+000,0.00000000000000e+000
1.36364364364365e+003	1.30970169607069e+000,0.00000000000000e+000
1.36863863863864e+003	1.31363691338791e+000,0.00000000000000e+000
1.37363363363364e+003	1.31756437455089e+000,0.00000000000000e+000
1.37862862862863e+003	1.32148407667147e+000,0.00000000000000e+000
1.38362362362363e+003	1.32539601702203e+000,0.00000000000000e+000
1.38861861861862e+003	1.32930019303464e+000,0.00000000000000e+000
1.39361361361362e+003	1.33319660230025e+000,0.00000000000000e+000
1.39860860860861e+003	1.33708524256776e+000,0.00000000000000e+000
1.40360360360361e+003	1.34096611174324e+000,0.00000000000000e+000
1.40859859859860e+003	1.34483920788903e+000,0.00000000000000e+000
1.41359359359360e+003	1.34870452922286e+000,0.00000000000000e+000
1.41858858858859e+003	1.35256207411702e+000,0.00000000000000e+000
1.42358358358359e+003	1.35641184109749e+000,0.00000000000000e+000
1.42857857857858e+003	1.36025382884303e+000,0.00000000000000e+000
1.43357357357358e+003	1.36408803618434e+000,0.00000000000000e+000
1.43856856856857e+003	1.36791446210318e+000,0.00000000000000e+000
1.44356356356357e+003	1.37173310573151e+000,0.00000000000000e+000
1.44855855855856e+003	1.37554396635055e+000,0.00000000000000e+000
1.45355355355356e+003	1.37934704338998e+000,0.00000000000000e+000
1.45854854854855e+003	1.38314233642700e+000,0.00000000000000e+000
1.46354354354355e+003	1.38692984518545e+000,0.00000000000000e+000
1.46853853853854e+003	1.39070956953497e+000,0.00000000000000e+000
1.47353353353354e+003	1.39448150949005e+000,0.00000000000000e+000
1.47852852852853e+003	1.39824566520920e+000,0.00000000000000e+000
1.48352352352353e+003	1.40200203699399e+000,0.00000000000000e+000
1.48851851851852e+003	1.40575062528825e+000,0.00000000000000e+000
1.49351351351352e+003	1.40949143067707e+000,0.00000000000000e+000
