time	V(vin)	V(vout)	I(L1)
0.000000000000000e+000	0.000000e+000	0.000000e+000	0.000000e+000
1.428571428571429e-010	7.142857e-001	-3.337494e-012	-5.624515e-010
2.857142857142858e-010	1.428571e+000	-1.538051e-012	-2.130388e-009
4.285714285714288e-010	2.142857e+000	5.398329e-012	-4.703809e-009
5.714285714285716e-010	2.857143e+000	1.747165e-011	-8.282714e-009
7.142857142857145e-010	3.571429e+000	3.468190e-011	-1.286710e-008
8.571428571428575e-010	4.285714e+000	5.702909e-011	-1.845698e-008
1.000000000000000e-009	5.000000e+000	8.451322e-011	-2.505234e-008
4.557097868775119e-007	5.000000e+000	6.712770e-005	-2.263424e-005
9.104195737550236e-007	5.000000e+000	2.579019e-004	-4.500560e-005
1.365129360632536e-006	5.000000e+000	5.723227e-004	-6.713911e-005
1.819839147510047e-006	5.000000e+000	1.010390e-003	-8.903479e-005
2.274548934387559e-006	5.000000e+000	1.572104e-003	-1.106926e-004
2.729258721265071e-006	5.000000e+000	2.257465e-003	-1.321126e-004
3.183968508142582e-006	5.000000e+000	3.066472e-003	-1.532948e-004
6.366949158392747e-006	5.000000e+000	1.135695e-002	-2.963968e-004
1.112686305869668e-005	5.000000e+000	3.206355e-002	-4.938061e-004
1.819712318121156e-005	5.000000e+000	7.918285e-002	-7.533074e-004
2.763511618940897e-005	5.000000e+000	1.680055e-001	-1.043491e-003
4.036150936802423e-005	5.000000e+000	3.252514e-001	-1.346971e-003
5.660344812785907e-005	5.000000e+000	5.710479e-001	-1.614127e-003
7.758768413381010e-005	5.000000e+000	9.345691e-001	-1.805377e-003
1.040264931082925e-004	5.000000e+000	1.423319e+000	-1.876884e-003
1.333233681082925e-004	5.000000e+000	1.963992e+000	-1.814333e-003
1.626202431082925e-004	5.000000e+000	2.473182e+000	-1.661738e-003
1.919171181082925e-004	5.000000e+000	2.931165e+000	-1.464761e-003
2.212139931082925e-004	5.000000e+000	3.329628e+000	-1.255415e-003
2.505108681082925e-004	5.000000e+000	3.667749e+000	-1.052823e-003
2.798077431082925e-004	5.000000e+000	3.949042e+000	-8.674691e-004
3.091046181082926e-004	5.000000e+000	4.179269e+000	-7.042115e-004
3.384014931082926e-004	5.000000e+000	4.365096e+000	-5.643678e-004
3.676983681082926e-004	5.000000e+000	4.513267e+000	-4.471454e-004
3.969952431082926e-004	5.000000e+000	4.630123e+000	-3.505973e-004
4.262921181082927e-004	5.000000e+000	4.721360e+000	-2.722450e-004
4.555889931082927e-004	5.000000e+000	4.791924e+000	-2.094701e-004
4.848858681082927e-004	5.000000e+000	4.846008e+000	-1.597468e-004
5.141827431082928e-004	5.000000e+000	4.887100e+000	-1.207690e-004
5.434796181082928e-004	5.000000e+000	4.918048e+000	-9.050885e-005
5.727764931082928e-004	5.000000e+000	4.941155e+000	-6.723111e-005
6.020733681082928e-004	5.000000e+000	4.958251e+000	-4.948265e-005
6.313702431082929e-004	5.000000e+000	4.970783e+000	-3.606754e-005
6.606671181082929e-004	5.000000e+000	4.979877e+000	-2.601585e-005
6.899639931082929e-004	5.000000e+000	4.986406e+000	-1.855093e-005
7.192608681082929e-004	5.000000e+000	4.991036e+000	-1.305791e-005
7.485577431082930e-004	5.000000e+000	4.994275e+000	-9.055050e-006
7.778546181082930e-004	5.000000e+000	4.996505e+000	-6.168498e-006
8.071514931082930e-004	5.000000e+000	4.998011e+000	-4.110800e-006
8.364483681082930e-004	5.000000e+000	4.999003e+000	-2.662872e-006
8.657452431082931e-004	5.000000e+000	4.999637e+000	-1.659189e-006
8.950421181082931e-004	5.000000e+000	5.000024e+000	-9.742365e-007
9.233890058433465e-004	5.000000e+000	5.000242e+000	-5.239875e-007
9.462427018556493e-004	5.000000e+000	5.000340e+000	-2.750701e-007
9.653008667456921e-004	5.000000e+000	5.000381e+000	-1.289943e-007
9.809328151044073e-004	5.000000e+000	5.000396e+000	-3.992978e-008
9.912515426465543e-004	5.000000e+000	5.000398e+000	4.985444e-009
1.005171864291485e-003	5.000000e+000	5.000393e+000	5.142158e-008
1.020356602385038e-003	5.000000e+000	5.000382e+000	8.856080e-008
1.042534779647264e-003	5.000000e+000	5.000358e+000	1.238900e-007
1.065314382382327e-003	5.000000e+000	5.000327e+000	1.432101e-007
1.093677432691156e-003	5.000000e+000	5.000285e+000	1.500900e-007
1.122034919351270e-003	5.000000e+000	5.000243e+000	1.453984e-007
1.151331794351270e-003	5.000000e+000	5.000203e+000	1.331561e-007
1.172258133636984e-003	5.000000e+000	5.000176e+000	1.210844e-007
1.193184472922699e-003	5.000000e+000	5.000152e+000	1.093857e-007
1.214110812208413e-003	5.000000e+000	5.000130e+000	9.806014e-008
1.235037151494127e-003	5.000000e+000	5.000110e+000	8.710759e-008
1.255963490779842e-003	5.000000e+000	5.000093e+000	7.652808e-008
1.276889830065556e-003	5.000000e+000	5.000078e+000	6.632162e-008
1.297816169351270e-003	5.000000e+000	5.000066e+000	5.648821e-008
1.356409919351270e-003	5.000000e+000	5.000039e+000	3.587586e-008
1.415003669351270e-003	5.000000e+000	5.000022e+000	2.184726e-008
1.502894294351270e-003	5.000000e+000	5.000009e+000	9.694075e-009
1.561356560239362e-003	5.000000e+000	5.000006e+000	6.383590e-009
1.619818826127455e-003	5.000000e+000	5.000003e+000	3.716988e-009
1.678281092015546e-003	5.000000e+000	5.000001e+000	1.694268e-009
1.736743357903638e-003	5.000000e+000	5.000000e+000	3.154299e-010
1.795205623791731e-003	5.000000e+000	4.999999e+000	-4.195258e-010
1.853667889679823e-003	5.000000e+000	4.999999e+000	-5.105992e-010
1.912130155567914e-003	5.000000e+000	5.000000e+000	4.220959e-011
5.000001002201119e-003	4.988995e+000	5.000000e+000	4.330467e-013
5.000001144743816e-003	4.276281e+000	5.000000e+000	7.200560e-010
5.000001287286514e-003	3.563568e+000	5.000000e+000	2.392639e-009
5.000001429829211e-003	2.850854e+000	5.000000e+000	5.018183e-009
5.000001572371908e-003	2.138141e+000	5.000000e+000	8.596686e-009
5.000001714914605e-003	1.425427e+000	5.000000e+000	1.312815e-008
5.000001857457303e-003	7.127135e-001	5.000000e+000	1.861257e-008
5.000002000000000e-003	0.000000e+000	5.000000e+000	2.504996e-008
5.001049750101576e-003	0.000000e+000	4.999629e+000	5.172141e-005
5.002097500203153e-003	0.000000e+000	4.998637e+000	1.022057e-004
5.003145250304729e-003	0.000000e+000	4.997026e+000	1.514780e-004
5.004193000406305e-003	0.000000e+000	4.994795e+000	1.995383e-004
5.005240750507881e-003	0.000000e+000	4.991944e+000	2.463865e-004
5.006288500609458e-003	0.000000e+000	4.988472e+000	2.920226e-004
5.007336250711034e-003	0.000000e+000	4.984381e+000	3.364468e-004
5.014670529400120e-003	0.000000e+000	4.941848e+000	6.183592e-004
5.029339086778292e-003	0.000000e+000	4.802460e+000	1.063199e-003
5.051071483251244e-003	0.000000e+000	4.510764e+000	1.514909e-003
5.074766772450614e-003	0.000000e+000	4.116754e+000	1.782751e-003
5.102145468519775e-003	0.000000e+000	3.613765e+000	1.878955e-003
5.130960229612571e-003	0.000000e+000	3.079995e+000	1.826610e-003
5.160257104612571e-003	0.000000e+000	2.566765e+000	1.677990e-003
5.189553979612571e-003	0.000000e+000	2.103800e+000	1.482520e-003
5.218850854612571e-003	0.000000e+000	1.700179e+000	1.272864e-003
5.248147729612572e-003	0.000000e+000	1.357141e+000	1.068941e-003
5.277444604612572e-003	0.000000e+000	1.071393e+000	8.817627e-004
5.306741479612572e-003	0.000000e+000	8.372704e-001	7.165179e-004
5.336038354612572e-003	0.000000e+000	6.481234e-001	5.747254e-004
5.365335229612573e-003	0.000000e+000	4.971814e-001	4.557049e-004
5.394632104612573e-003	0.000000e+000	3.780503e-001	3.575634e-004
5.423928979612573e-003	0.000000e+000	2.849736e-001	2.778402e-004
5.453225854612573e-003	0.000000e+000	2.129396e-001	2.139120e-004
5.482522729612574e-003	0.000000e+000	1.576933e-001	1.632359e-004
5.511819604612574e-003	0.000000e+000	1.156934e-001	1.234831e-004
5.541116479612574e-003	0.000000e+000	8.404057e-002	9.260051e-005
5.570413354612574e-003	0.000000e+000	6.039371e-002	6.882880e-005
5.599710229612575e-003	0.000000e+000	4.288572e-002	5.069242e-005
5.629007104612575e-003	0.000000e+000	3.004372e-002	3.697563e-005
5.658303979612575e-003	0.000000e+000	2.071748e-002	2.669149e-005
5.687600854612575e-003	0.000000e+000	1.401721e-002	1.904905e-005
5.716897729612576e-003	0.000000e+000	9.260755e-003	1.342165e-005
5.746194604612576e-003	0.000000e+000	5.929762e-003	9.317931e-006
5.775491479612576e-003	0.000000e+000	3.633724e-003	6.356358e-006
5.804788354612576e-003	0.000000e+000	2.073591e-003	4.234360e-006
5.832106534663199e-003	0.000000e+000	1.086546e-003	2.807742e-006
5.853772197296405e-003	0.000000e+000	5.480741e-004	1.974973e-006
5.871565187930353e-003	0.000000e+000	2.353395e-004	1.455093e-006
5.887671860817771e-003	0.000000e+000	2.907721e-005	1.085452e-006
5.903868089640780e-003	0.000000e+000	-1.230187e-004	7.890055e-007
5.919497483312925e-003	0.000000e+000	-2.265934e-004	5.639969e-007
5.940281592049156e-003	0.000000e+000	-3.157705e-004	3.364106e-007
5.963204673684706e-003	0.000000e+000	-3.728044e-004	1.493454e-007
5.979804995850716e-003	0.000000e+000	-3.923564e-004	4.929265e-008
5.990544294028911e-003	0.000000e+000	-3.954666e-004	1.188033e-009
6.005241787707951e-003	0.000000e+000	-3.914403e-004	-4.898747e-008
6.019542903194000e-003	0.000000e+000	-3.813305e-004	-8.477112e-008
6.042028612150953e-003	0.000000e+000	-3.572349e-004	-1.216296e-007
6.064041689431519e-003	0.000000e+000	-3.281380e-004	-1.412769e-007
6.092864020626959e-003	0.000000e+000	-2.860271e-004	-1.491999e-007
6.120503221756822e-003	0.000000e+000	-2.453631e-004	-1.453301e-007
6.149800096756822e-003	0.000000e+000	-2.045538e-004	-1.335221e-007
6.170726436042536e-003	0.000000e+000	-1.778662e-004	-1.216136e-007
6.191652775328251e-003	0.000000e+000	-1.535146e-004	-1.100367e-007
6.212579114613965e-003	0.000000e+000	-1.314990e-004	-9.879129e-008
6.233505453899679e-003	0.000000e+000	-1.118194e-004	-8.787747e-008
6.254431793185394e-003	0.000000e+000	-9.447587e-005	-7.729520e-008
6.275358132471109e-003	0.000000e+000	-7.946831e-005	-6.704449e-008
6.296284471756823e-003	0.000000e+000	-6.679678e-005	-5.712534e-008
6.354878221756823e-003	0.000000e+000	-3.967761e-005	-3.634671e-008
6.413471971756824e-003	0.000000e+000	-2.274943e-005	-2.216807e-008
6.501362596756825e-003	0.000000e+000	-9.240348e-006	-9.857022e-009
6.559448063417754e-003	0.000000e+000	-5.954437e-006	-6.503745e-009
6.617533530078683e-003	0.000000e+000	-3.323000e-006	-3.801077e-009
6.675618996739613e-003	0.000000e+000	-1.346037e-006	-1.749018e-009
6.733704463400543e-003	0.000000e+000	-2.354921e-008	-3.475686e-010
6.791789930061473e-003	0.000000e+000	6.444645e-007	4.032720e-010
6.849875396722402e-003	0.000000e+000	6.580038e-007	5.035035e-010
6.907960863383331e-003	0.000000e+000	1.706877e-008	-4.687404e-011
1.000000000000000e-002	0.000000e+000	-1.483290e-020	-5.593178e-024
1.000000014285714e-002	7.142857e-001	-2.103244e-012	-7.046646e-010
1.000000028571429e-002	1.428571e+000	5.527866e-013	-2.367296e-009
1.000000042857143e-002	2.142857e+000	7.968092e-012	-4.987895e-009
1.000000057142857e-002	2.857143e+000	2.014267e-011	-8.566460e-009
1.000000071428571e-002	3.571429e+000	3.707653e-011	-1.310299e-008
1.000000085714286e-002	4.285714e+000	5.876965e-011	-1.859749e-008
1.000000100000000e-002	5.000000e+000	8.522206e-011	-2.504996e-008
1.000052928756953e-002	5.000000e+000	9.202315e-005	-2.626645e-005
1.000105757513907e-002	5.000000e+000	3.487241e-004	-5.219050e-005
1.000158586270860e-002	5.000000e+000	7.701030e-004	-7.779720e-005
1.000211415027813e-002	5.000000e+000	1.356160e-003	-1.030865e-004
1.000264243784767e-002	5.000000e+000	2.106894e-003	-1.280585e-004
1.000317072541720e-002	5.000000e+000	3.022307e-003	-1.527132e-004
1.000369901298674e-002	5.000000e+000	4.102397e-003	-1.770504e-004
1.000732239325825e-002	5.000000e+000	1.475176e-002	-3.375580e-004
1.001246797747536e-002	5.000000e+000	3.956509e-002	-5.460288e-004
1.002013968286298e-002	5.000000e+000	9.521362e-002	-8.180381e-004
1.003016084562476e-002	5.000000e+000	1.961061e-001	-1.111270e-003
1.004373327623000e-002	5.000000e+000	3.727270e-001	-1.412575e-003
1.006085269098465e-002	5.000000e+000	6.414024e-001	-1.665366e-003
1.008307123098370e-002	5.000000e+000	1.034417e+000	-1.832821e-003
1.011092792087027e-002	5.000000e+000	1.552035e+000	-1.872811e-003
1.014022479587027e-002	5.000000e+000	2.087686e+000	-1.784781e-003
1.016952167087027e-002	5.000000e+000	2.586131e+000	-1.617937e-003
1.019881854587027e-002	5.000000e+000	3.030513e+000	-1.415706e-003
1.022811542087027e-002	5.000000e+000	3.414639e+000	-1.206595e-003
1.025741229587027e-002	5.000000e+000	3.738949e+000	-1.007361e-003
1.028670917087026e-002	5.000000e+000	4.007644e+000	-8.269295e-004
1.031600604587026e-002	5.000000e+000	4.226798e+000	-6.691631e-004
1.034530292087026e-002	5.000000e+000	4.403156e+000	-5.347733e-004
1.037459979587026e-002	5.000000e+000	4.543399e+000	-4.226235e-004
1.040389667087026e-002	5.000000e+000	4.653734e+000	-3.305949e-004
1.043319354587026e-002	5.000000e+000	4.739682e+000	-2.561475e-004
1.046249042087026e-002	5.000000e+000	4.806013e+000	-1.966681e-004
1.049178729587026e-002	5.000000e+000	4.856747e+000	-1.496744e-004
1.052108417087026e-002	5.000000e+000	4.895213e+000	-1.129223e-004
1.055038104587026e-002	5.000000e+000	4.924126e+000	-8.445288e-005
1.057967792087026e-002	5.000000e+000	4.945666e+000	-6.259886e-005
1.060897479587026e-002	5.000000e+000	4.961570e+000	-4.597030e-005
1.063827167087026e-002	5.000000e+000	4.973200e+000	-3.342742e-005
1.066756854587026e-002	5.000000e+000	4.981620e+000	-2.404876e-005
1.069686542087026e-002	5.000000e+000	4.987647e+000	-1.709853e-005
1.072616229587026e-002	5.000000e+000	4.991909e+000	-1.199570e-005
1.075545917087025e-002	5.000000e+000	4.994880e+000	-8.286060e-006
1.078475604587025e-002	5.000000e+000	4.996917e+000	-5.617937e-006
1.081405292087025e-002	5.000000e+000	4.998285e+000	-3.721481e-006
1.084334979587025e-002	5.000000e+000	4.999180e+000	-2.391450e-006
1.087264667087025e-002	5.000000e+000	4.999746e+000	-1.473097e-006
1.090194354587025e-002	5.000000e+000	5.000089e+000	-8.482636e-007
1.092957293808486e-002	5.000000e+000	5.000274e+000	-4.482981e-007
1.095160390618230e-002	5.000000e+000	5.000354e+000	-2.291471e-007
1.096979187392299e-002	5.000000e+000	5.000387e+000	-1.007615e-007
1.098422422592660e-002	5.000000e+000	5.000397e+000	-2.483911e-008
1.099605894793566e-002	5.000000e+000	5.000397e+000	2.316105e-008
1.100706808048848e-002	5.000000e+000	5.000392e+000	5.715527e-008
1.102609572322825e-002	5.000000e+000	5.000376e+000	9.957954e-008
1.104629072537890e-002	5.000000e+000	5.000353e+000	1.282481e-007
1.107279969561720e-002	5.000000e+000	5.000316e+000	1.464914e-007
1.109888103879252e-002	5.000000e+000	5.000278e+000	1.502006e-007
1.112817791379252e-002	5.000000e+000	5.000235e+000	1.432456e-007
1.115747478879252e-002	5.000000e+000	5.000195e+000	1.300503e-007
1.124536541379251e-002	5.000000e+000	5.000102e+000	8.118096e-008
1.130395916379251e-002	5.000000e+000	5.000062e+000	5.398206e-008
1.136255291379251e-002	5.000000e+000	5.000037e+000	3.412088e-008
1.142114666379251e-002	5.000000e+000	5.000021e+000	2.069448e-008
1.150903728879251e-002	5.000000e+000	5.000009e+000	9.131758e-009
1.156740860472701e-002	5.000000e+000	5.000005e+000	6.007170e-009
1.162577992066151e-002	5.000000e+000	5.000003e+000	3.491017e-009
1.168415123659601e-002	5.000000e+000	5.000001e+000	1.583298e-009
1.174252255253052e-002	5.000000e+000	5.000000e+000	2.840131e-010
1.180089386846502e-002	5.000000e+000	4.999999e+000	-4.068370e-010
1.185926518439952e-002	5.000000e+000	4.999999e+000	-4.892528e-010
1.191763650033403e-002	5.000000e+000	5.000000e+000	3.676584e-011
1.500000100219993e-002	4.989000e+000	5.000000e+000	4.326405e-013
1.500000114474280e-002	4.276286e+000	5.000000e+000	7.197151e-010
1.500000128728567e-002	3.563572e+000	5.000000e+000	2.392071e-009
1.500000142982853e-002	2.850857e+000	5.000000e+000	5.017501e-009
1.500000157237140e-002	2.138143e+000	5.000000e+000	8.596005e-009
1.500000171491427e-002	1.425429e+000	5.000000e+000	1.312758e-008
1.500000185745713e-002	7.127143e-001	5.000000e+000	1.861223e-008
1.500000200000000e-002	0.000000e+000	5.000000e+000	2.504996e-008
1.500105323054912e-002	0.000000e+000	4.999626e+000	5.189071e-005
1.500210446109824e-002	0.000000e+000	4.998628e+000	1.025366e-004
1.500315569164736e-002	0.000000e+000	4.997007e+000	1.519626e-004
1.500420692219648e-002	0.000000e+000	4.994761e+000	2.001688e-004
1.500525815274560e-002	0.000000e+000	4.991892e+000	2.471552e-004
1.500630938329472e-002	0.000000e+000	4.988399e+000	2.929218e-004
1.500736061384384e-002	0.000000e+000	4.984282e+000	3.374686e-004
1.501471925575868e-002	0.000000e+000	4.941488e+000	6.200686e-004
1.502943653958835e-002	0.000000e+000	4.801363e+000	1.065763e-003
1.505116576818042e-002	0.000000e+000	4.509332e+000	1.516410e-003
1.507489240023677e-002	0.000000e+000	4.114514e+000	1.783634e-003
1.510226250467752e-002	0.000000e+000	3.611583e+000	1.879009e-003
1.513110864444051e-002	0.000000e+000	3.077302e+000	1.826025e-003
1.516040551944051e-002	0.000000e+000	2.564281e+000	1.677086e-003
1.518970239444051e-002	0.000000e+000	2.101602e+000	1.481473e-003
1.521899926944051e-002	0.000000e+000	1.698290e+000	1.271805e-003
1.524829614444050e-002	0.000000e+000	1.355553e+000	1.067945e-003
1.527759301944050e-002	0.000000e+000	1.070082e+000	8.808680e-004
1.530688989444050e-002	0.000000e+000	8.362042e-001	7.157404e-004
1.533618676944050e-002	0.000000e+000	6.472677e-001	5.740662e-004
1.536548364444050e-002	0.000000e+000	4.965026e-001	4.551569e-004
1.539478051944050e-002	0.000000e+000	3.775174e-001	3.571152e-004
1.542407739444050e-002	0.000000e+000	2.845593e-001	2.774787e-004
1.545337426944050e-002	0.000000e+000	2.126205e-001	2.136239e-004
1.548267114444050e-002	0.000000e+000	1.574497e-001	1.630088e-004
1.551196801944050e-002	0.000000e+000	1.155091e-001	1.233058e-004
1.554126489444050e-002	0.000000e+000	8.390226e-002	9.246344e-005
1.557056176944050e-002	0.000000e+000	6.029085e-002	6.872378e-005
1.559985864444050e-002	0.000000e+000	4.280993e-002	5.061266e-005
1.562915551944050e-002	0.000000e+000	2.998841e-002	3.691558e-005
1.565845239444050e-002	0.000000e+000	2.067753e-002	2.664667e-005
1.568774926944050e-002	0.000000e+000	1.398868e-002	1.901590e-005
1.571704614444050e-002	0.000000e+000	9.240643e-003	1.339736e-005
1.574634301944050e-002	0.000000e+000	5.915788e-003	9.300314e-006
1.577563989444050e-002	0.000000e+000	3.624182e-003	6.343716e-006
1.580493676944050e-002	0.000000e+000	2.067167e-003	4.225341e-006
1.583223900044191e-002	0.000000e+000	1.082687e-003	2.801949e-006
1.585388579567879e-002	0.000000e+000	5.457398e-004	1.971222e-006
1.587165823890560e-002	0.000000e+000	2.339409e-004	1.452684e-006
1.588776080938799e-002	0.000000e+000	2.809176e-005	1.083620e-006
1.590395270840934e-002	0.000000e+000	-1.237013e-004	7.876142e-007
1.591957919850509e-002	0.000000e+000	-2.270508e-004	5.629441e-007
1.594039595030767e-002	0.000000e+000	-3.161434e-004	3.353397e-007
1.596332492994275e-002	0.000000e+000	-3.730017e-004	1.485293e-007
1.597989488483575e-002	0.000000e+000	-3.924193e-004	4.882543e-008
1.599059300792789e-002	0.000000e+000	-3.954812e-004	9.697944e-010
1.600525215373217e-002	0.000000e+000	-3.914397e-004	-4.902553e-008
1.601957935647010e-002	0.000000e+000	-3.812991e-004	-8.484861e-008
1.604205530736227e-002	0.000000e+000	-3.572035e-004	-1.216637e-007
1.606409089270068e-002	0.000000e+000	-3.280690e-004	-1.413059e-007
1.609289670629785e-002	0.000000e+000	-2.859794e-004	-1.492022e-007
1.612055647319470e-002	0.000000e+000	-2.452866e-004	-1.453133e-007
1.614985334819470e-002	0.000000e+000	-2.044830e-004	-1.334968e-007
1.617077968748041e-002	0.000000e+000	-1.778016e-004	-1.215859e-007
1.619170602676613e-002	0.000000e+000	-1.534561e-004	-1.100075e-007
1.621263236605184e-002	0.000000e+000	-1.314464e-004	-9.876165e-008
1.623355870533756e-002	0.000000e+000	-1.117725e-004	-8.784827e-008
1.625448504462327e-002	0.000000e+000	-9.443457e-005	-7.726738e-008
1.627541138390899e-002	0.000000e+000	-7.943246e-005	-6.701900e-008
1.629633772319470e-002	0.000000e+000	-6.676622e-005	-5.710312e-008
