Freq.	(V(n002)-V(n007))/(V(n006))
1.00000000000000e+001	4.32554051916265e-010,1.37686299885248e-002
2.00000000000000e+001	1.73021620780302e-009,2.75372599770496e-002
3.00000000000000e+001	3.89298646677312e-009,4.13058899655741e-002
4.00000000000000e+001	6.92086482734796e-009,5.50745199540984e-002
5.00000000000000e+001	1.08138513002945e-008,6.88431499426224e-002
6.00000000000000e+001	1.55719458700709e-008,8.26117799311460e-002
7.00000000000000e+001	2.11951485458709e-008,9.63804099196691e-002
8.00000000000000e+001	2.76834592919747e-008,1.10149039908192e-001
9.00000000000000e+001	3.50368781866494e-008,1.23917669896714e-001
1.00000000000000e+002	4.32554051893493e-008,1.37686299885235e-001
1.10000000000000e+002	5.23390402749836e-008,1.51454929873755e-001
1.20000000000000e+002	6.22877834793658e-008,1.65223559862274e-001
1.30000000000000e+002	7.31016347784772e-008,1.78992189850793e-001
1.40000000000000e+002	8.47805941849177e-008,1.92760819839310e-001
1.50000000000000e+002	9.73246616875368e-008,2.06529449827827e-001
1.60000000000000e+002	1.10733837305558e-007,2.20298079816342e-001
1.70000000000000e+002	1.25008121010862e-007,2.34066709804855e-001
1.80000000000000e+002	1.40147512776559e-007,2.47835339793368e-001
1.90000000000000e+002	1.56152012746300e-007,2.61603969781879e-001
2.00000000000000e+002	1.73021620806838e-007,2.75372599770388e-001
2.10000000000000e+002	1.90756336929422e-007,2.89141229758896e-001
2.20000000000000e+002	2.09356161122615e-007,3.02909859747402e-001
2.30000000000000e+002	2.28821093487802e-007,3.16678489735906e-001
2.40000000000000e+002	2.49151133919432e-007,3.30447119724408e-001
2.50000000000000e+002	2.70346282463063e-007,3.44215749712908e-001
2.60000000000000e+002	2.92406539048913e-007,3.57984379701407e-001
2.70000000000000e+002	3.15331903880429e-007,3.71753009689903e-001
2.80000000000000e+002	3.39122376729306e-007,3.85521639678397e-001
2.90000000000000e+002	3.63777957701534e-007,3.99290269666889e-001
3.00000000000000e+002	3.89298646782208e-007,4.13058899655378e-001
3.10000000000000e+002	4.15684443913246e-007,4.26827529643865e-001
3.20000000000000e+002	4.42935349182122e-007,4.40596159632349e-001
3.30000000000000e+002	4.71051362544316e-007,4.54364789620831e-001
3.40000000000000e+002	5.00032484006497e-007,4.68133419609310e-001
3.50000000000000e+002	5.29878713609871e-007,4.81902049597786e-001
3.60000000000000e+002	5.60590051352464e-007,4.95670679586260e-001
3.70000000000000e+002	5.92166497189125e-007,5.09439309574730e-001
3.80000000000000e+002	6.24608050987112e-007,5.23207939563198e-001
3.90000000000000e+002	6.57914713003496e-007,5.36976569551662e-001
4.00000000000000e+002	6.92086483130200e-007,5.50745199540123e-001
4.10000000000000e+002	7.27123361349197e-007,5.64513829528581e-001
4.20000000000000e+002	7.63025347632587e-007,5.78282459517036e-001
4.30000000000000e+002	7.99792442020314e-007,5.92051089505487e-001
4.40000000000000e+002	8.37424644586858e-007,6.05819719493935e-001
4.50000000000000e+002	8.75921955163680e-007,6.19588349482379e-001
4.60000000000000e+002	9.15284374016460e-007,6.33356979470819e-001
4.70000000000000e+002	9.55511900779279e-007,6.47125609459256e-001
4.80000000000000e+002	9.96604535709170e-007,6.60894239447689e-001
4.90000000000000e+002	1.03856227877574e-006,6.74662869436118e-001
5.00000000000000e+002	1.08138512992764e-006,6.88431499424543e-001
5.10000000000000e+002	1.12507308911470e-006,7.02200129412963e-001
5.20000000000000e+002	1.16962615648789e-006,7.15968759401380e-001
5.30000000000000e+002	1.21504433188849e-006,7.29737389389793e-001
5.40000000000000e+002	1.26132761544769e-006,7.43506019378201e-001
5.50000000000000e+002	1.30847600712029e-006,7.57274649366605e-001
5.60000000000000e+002	1.35648950690669e-006,7.71043279355004e-001
5.70000000000000e+002	1.40536811485297e-006,7.84811909343399e-001
5.80000000000000e+002	1.45511183069555e-006,7.98580539331789e-001
5.90000000000000e+002	1.50572065479382e-006,8.12349169320174e-001
6.00000000000000e+002	1.55719458715312e-006,8.26117799308554e-001
6.10000000000000e+002	1.60953362724711e-006,8.39886429296931e-001
6.20000000000000e+002	1.66273777570532e-006,8.53655059285301e-001
6.30000000000000e+002	1.71680703209271e-006,8.67423689273667e-001
6.40000000000000e+002	1.77174139679699e-006,8.81192319262027e-001
6.50000000000000e+002	1.82754086951882e-006,8.94960949250382e-001
6.60000000000000e+002	1.88420545042633e-006,9.08729579238732e-001
6.70000000000000e+002	1.94173513928924e-006,9.22498209227077e-001
6.80000000000000e+002	2.00012993627815e-006,9.36266839215416e-001
6.90000000000000e+002	2.05938984116524e-006,9.50035469203750e-001
7.00000000000000e+002	2.11951485452325e-006,9.63804099192077e-001
7.10000000000000e+002	2.18050497572714e-006,9.77572729180399e-001
7.20000000000000e+002	2.24236020544092e-006,9.91341359168716e-001
7.30000000000000e+002	2.30508054286438e-006,1.00510998915703e+000
7.40000000000000e+002	2.36866598848636e-006,1.01887861914533e+000
7.50000000000000e+002	2.43311654208642e-006,1.03264724913363e+000
7.60000000000000e+002	2.49843220393382e-006,1.04641587912192e+000
7.70000000000000e+002	2.56461297394379e-006,1.06018450911021e+000
7.80000000000000e+002	2.63165885203280e-006,1.07395313909849e+000
7.90000000000000e+002	2.69956983842939e-006,1.08772176908676e+000
8.00000000000000e+002	2.76834593234195e-006,1.10149039907503e+000
8.10000000000000e+002	2.83798713480085e-006,1.11525902906329e+000
8.20000000000000e+002	2.90849344523897e-006,1.12902765905154e+000
8.30000000000000e+002	2.97986486362334e-006,1.14279628903979e+000
8.40000000000000e+002	3.05210139049951e-006,1.15656491902803e+000
8.50000000000000e+002	3.12520302543729e-006,1.17033354901627e+000
8.60000000000000e+002	3.19916976800771e-006,1.18410217900449e+000
8.70000000000000e+002	3.27400161911530e-006,1.19787080899271e+000
8.80000000000000e+002	3.34969857820030e-006,1.21163943898092e+000
8.90000000000000e+002	3.42626064545918e-006,1.22540806896913e+000
9.00000000000000e+002	3.50368782082316e-006,1.23917669895733e+000
9.10000000000000e+002	3.58198010422467e-006,1.25294532894552e+000
9.20000000000000e+002	3.66113749559741e-006,1.26671395893370e+000
9.30000000000000e+002	3.74115999532037e-006,1.28048258892188e+000
9.40000000000000e+002	3.82204760328529e-006,1.29425121891005e+000
9.50000000000000e+002	3.90380031854135e-006,1.30801984889821e+000
9.60000000000000e+002	3.98641814280353e-006,1.32178847888636e+000
9.70000000000000e+002	4.06990107467937e-006,1.33555710887451e+000
9.80000000000000e+002	4.15424911482048e-006,1.34932573886264e+000
9.90000000000000e+002	4.23946226361325e-006,1.36309436885077e+000
1.00000000000000e+003	4.32554051966892e-006,1.37686299883889e+000
