Freq.	mag((V(n007)-V(n002))/V(n006))
1.00000000000000e+001	1.12391395129253e-002,0.00000000000000e+000
1.10090090090090e+002	1.23729009844706e-001,0.00000000000000e+000
2.10180180180180e+002	2.36204988350405e-001,0.00000000000000e+000
3.10270270270270e+002	3.48654453203560e-001,0.00000000000000e+000
4.10360360360360e+002	4.61064797829746e-001,0.00000000000000e+000
5.10450450450450e+002	5.73423438143713e-001,0.00000000000000e+000
6.10540540540541e+002	6.85717819756538e-001,0.00000000000000e+000
7.10630630630631e+002	7.97935425143230e-001,0.00000000000000e+000
8.10720720720721e+002	9.10063780761331e-001,0.00000000000000e+000
9.10810810810811e+002	1.02209046411115e+000,0.00000000000000e+000
1.01090090090090e+003	1.13400311072846e+000,0.00000000000000e+000
1.11099099099099e+003	1.24578942110051e+000,0.00000000000000e+000
1.21108108108108e+003	1.35743716749667e+000,0.00000000000000e+000
1.31117117117117e+003	1.46893420070483e+000,0.00000000000000e+000
1.41126126126126e+003	1.58026845666526e+000,0.00000000000000e+000
1.51135135135135e+003	1.69142796299365e+000,0.00000000000000e+000
1.61144144144144e+003	1.80240084538545e+000,0.00000000000000e+000
1.71153153153153e+003	1.91317533389374e+000,0.00000000000000e+000
1.81162162162162e+003	2.02373976907334e+000,0.00000000000000e+000
1.91171171171171e+003	2.13408260798404e+000,0.00000000000000e+000
2.01180180180180e+003	2.24419243004615e+000,0.00000000000000e+000
2.11189189189189e+003	2.35405794274203e+000,0.00000000000000e+000
2.21198198198198e+003	2.46366798715747e+000,0.00000000000000e+000
2.31207207207207e+003	2.57301154335712e+000,0.00000000000000e+000
2.41216216216216e+003	2.68207773558870e+000,0.00000000000000e+000
2.51225225225225e+003	2.79085583731096e+000,0.00000000000000e+000
2.61234234234234e+003	2.89933527604075e+000,0.00000000000000e+000
2.71243243243243e+003	3.00750563801486e+000,0.00000000000000e+000
2.81252252252252e+003	3.11535667266304e+000,0.00000000000000e+000
2.91261261261261e+003	3.22287829688839e+000,0.00000000000000e+000
3.01270270270270e+003	3.33006059915232e+000,0.00000000000000e+000
3.11279279279279e+003	3.43689384336123e+000,0.00000000000000e+000
3.21288288288288e+003	3.54336847255272e+000,0.00000000000000e+000
3.31297297297297e+003	3.64947511237928e+000,0.00000000000000e+000
3.41306306306306e+003	3.75520457438818e+000,0.00000000000000e+000
3.51315315315315e+003	3.86054785909614e+000,0.00000000000000e+000
3.61324324324324e+003	3.96549615885823e+000,0.00000000000000e+000
3.71333333333333e+003	4.07004086053055e+000,0.00000000000000e+000
3.81342342342343e+003	4.17417354792662e+000,0.00000000000000e+000
3.91351351351352e+003	4.27788600406792e+000,0.00000000000000e+000
4.01360360360361e+003	4.38117021322916e+000,0.00000000000000e+000
4.11369369369370e+003	4.48401836277937e+000,0.00000000000000e+000
4.21378378378379e+003	4.58642284482014e+000,0.00000000000000e+000
4.31387387387387e+003	4.68837625762272e+000,0.00000000000000e+000
4.41396396396396e+003	4.78987140686589e+000,0.00000000000000e+000
4.51405405405405e+003	4.89090130667698e+000,0.00000000000000e+000
4.61414414414414e+003	4.99145918047845e+000,0.00000000000000e+000
4.71423423423423e+003	5.09153846164307e+000,0.00000000000000e+000
4.81432432432432e+003	5.19113279396054e+000,0.00000000000000e+000
4.91441441441441e+003	5.29023603191916e+000,0.00000000000000e+000
5.01450450450450e+003	5.38884224080582e+000,0.00000000000000e+000
5.11459459459459e+003	5.48694569662830e+000,0.00000000000000e+000
5.21468468468468e+003	5.58454088586378e+000,0.00000000000000e+000
5.31477477477477e+003	5.68162250503772e+000,0.00000000000000e+000
5.41486486486486e+003	5.77818546013744e+000,0.00000000000000e+000
5.51495495495495e+003	5.87422486586494e+000,0.00000000000000e+000
5.61504504504504e+003	5.96973604473354e+000,0.00000000000000e+000
5.71513513513513e+003	6.06471452601310e+000,0.00000000000000e+000
5.81522522522522e+003	6.15915604452884e+000,0.00000000000000e+000
5.91531531531531e+003	6.25305653931853e+000,0.00000000000000e+000
6.01540540540540e+003	6.34641215215324e+000,0.00000000000000e+000
6.11549549549549e+003	6.43921922592686e+000,0.00000000000000e+000
6.21558558558558e+003	6.53147430291942e+000,0.00000000000000e+000
6.31567567567567e+003	6.62317412293964e+000,0.00000000000000e+000
6.41576576576576e+003	6.71431562135184e+000,0.00000000000000e+000
6.51585585585585e+003	6.80489592699270e+000,0.00000000000000e+000
6.61594594594594e+003	6.89491235998295e+000,0.00000000000000e+000
6.71603603603603e+003	6.98436242943962e+000,0.00000000000000e+000
6.81612612612612e+003	7.07324383109386e+000,0.00000000000000e+000
6.91621621621621e+003	7.16155444481986e+000,0.00000000000000e+000
7.01630630630630e+003	7.24929233207993e+000,0.00000000000000e+000
7.11639639639639e+003	7.33645573329115e+000,0.00000000000000e+000
7.21648648648648e+003	7.42304306511862e+000,0.00000000000000e+000
7.31657657657657e+003	7.50905291770046e+000,0.00000000000000e+000
7.41666666666666e+003	7.59448405180963e+000,0.00000000000000e+000
7.51675675675674e+003	7.67933539595755e+000,0.00000000000000e+000
7.61684684684683e+003	7.76360604344434e+000,0.00000000000000e+000
7.71693693693692e+003	7.84729524936054e+000,0.00000000000000e+000
7.81702702702701e+003	7.93040242754502e+000,0.00000000000000e+000
7.91711711711710e+003	8.01292714750372e+000,0.00000000000000e+000
8.01720720720719e+003	8.09486913129361e+000,0.00000000000000e+000
8.11729729729728e+003	8.17622825037642e+000,0.00000000000000e+000
8.21738738738737e+003	8.25700452244630e+000,0.00000000000000e+000
8.31747747747746e+003	8.33719810823573e+000,0.00000000000000e+000
8.41756756756755e+003	8.41680930830352e+000,0.00000000000000e+000
8.51765765765764e+003	8.49583855980909e+000,0.00000000000000e+000
8.61774774774774e+003	8.57428643327655e+000,0.00000000000000e+000
8.71783783783783e+003	8.65215362935258e+000,0.00000000000000e+000
8.81792792792792e+003	8.72944097556135e+000,0.00000000000000e+000
8.91801801801801e+003	8.80614942306010e+000,0.00000000000000e+000
9.01810810810810e+003	8.88228004339866e+000,0.00000000000000e+000
9.11819819819819e+003	8.95783402528598e+000,0.00000000000000e+000
9.21828828828828e+003	9.03281267136679e+000,0.00000000000000e+000
9.31837837837837e+003	9.10721739501122e+000,0.00000000000000e+000
9.41846846846846e+003	9.18104971712027e+000,0.00000000000000e+000
9.51855855855855e+003	9.25431126294961e+000,0.00000000000000e+000
9.61864864864864e+003	9.32700375895441e+000,0.00000000000000e+000
9.71873873873873e+003	9.39912902965741e+000,0.00000000000000e+000
9.81882882882882e+003	9.47068899454263e+000,0.00000000000000e+000
9.91891891891891e+003	9.54168566497677e+000,0.00000000000000e+000
1.00190090090090e+004	9.61212114116045e+000,0.00000000000000e+000
1.01190990990991e+004	9.68199760911094e+000,0.00000000000000e+000
1.02191891891892e+004	9.75131733767844e+000,0.00000000000000e+000
1.03192792792793e+004	9.82008267559743e+000,0.00000000000000e+000
1.04193693693694e+004	9.88829604857463e+000,0.00000000000000e+000
1.05194594594595e+004	9.95595995641503e+000,0.00000000000000e+000
1.06195495495495e+004	1.00230769701874e+001,0.00000000000000e+000
1.07196396396396e+004	1.00896497294304e+001,0.00000000000000e+000
1.08197297297297e+004	1.01556809394004e+001,0.00000000000000e+000
1.09198198198198e+004	1.02211733683624e+001,0.00000000000000e+000
1.10199099099099e+004	1.02861298449239e+001,0.00000000000000e+000
1.11200000000000e+004	1.03505532554147e+001,0.00000000000000e+000
1.12200900900901e+004	1.04144465413105e+001,0.00000000000000e+000
1.13201801801802e+004	1.04778126967033e+001,0.00000000000000e+000
1.14202702702703e+004	1.05406547658184e+001,0.00000000000000e+000
1.15203603603604e+004	1.06029758405784e+001,0.00000000000000e+000
1.16204504504505e+004	1.06647790582138e+001,0.00000000000000e+000
1.17205405405405e+004	1.07260675989229e+001,0.00000000000000e+000
1.18206306306306e+004	1.07868446835786e+001,0.00000000000000e+000
1.19207207207207e+004	1.08471135714838e+001,0.00000000000000e+000
1.20208108108108e+004	1.09068775581754e+001,0.00000000000000e+000
1.21209009009009e+004	1.09661399732767e+001,0.00000000000000e+000
1.22209909909910e+004	1.10249041783980e+001,0.00000000000000e+000
1.23210810810811e+004	1.10831735650859e+001,0.00000000000000e+000
1.24211711711712e+004	1.11409515528211e+001,0.00000000000000e+000
1.25212612612613e+004	1.11982415870643e+001,0.00000000000000e+000
1.26213513513514e+004	1.12550471373495e+001,0.00000000000000e+000
1.27214414414415e+004	1.13113716954262e+001,0.00000000000000e+000
1.28215315315315e+004	1.13672187734481e+001,0.00000000000000e+000
1.29216216216216e+004	1.14225919022095e+001,0.00000000000000e+000
1.30217117117117e+004	1.14774946294278e+001,0.00000000000000e+000
1.31218018018018e+004	1.15319305180737e+001,0.00000000000000e+000
1.32218918918919e+004	1.15859031447456e+001,0.00000000000000e+000
1.33219819819820e+004	1.16394160980911e+001,0.00000000000000e+000
1.34220720720721e+004	1.16924729772720e+001,0.00000000000000e+000
1.35221621621622e+004	1.17450773904754e+001,0.00000000000000e+000
1.36222522522523e+004	1.17972329534669e+001,0.00000000000000e+000
1.37223423423424e+004	1.18489432881888e+001,0.00000000000000e+000
1.38224324324324e+004	1.19002120213999e+001,0.00000000000000e+000
1.39225225225225e+004	1.19510427833579e+001,0.00000000000000e+000
1.40226126126126e+004	1.20014392065436e+001,0.00000000000000e+000
1.41227027027027e+004	1.20514049244250e+001,0.00000000000000e+000
1.42227927927928e+004	1.21009435702631e+001,0.00000000000000e+000
1.43228828828829e+004	1.21500587759558e+001,0.00000000000000e+000
1.44229729729730e+004	1.21987541709216e+001,0.00000000000000e+000
1.45230630630631e+004	1.22470333810212e+001,0.00000000000000e+000
1.46231531531532e+004	1.22949000275165e+001,0.00000000000000e+000
1.47232432432433e+004	1.23423577260667e+001,0.00000000000000e+000
1.48233333333334e+004	1.23894100857600e+001,0.00000000000000e+000
1.49234234234234e+004	1.24360607081813e+001,0.00000000000000e+000
1.50235135135135e+004	1.24823131865140e+001,0.00000000000000e+000
1.51236036036036e+004	1.25281711046761e+001,0.00000000000000e+000
1.52236936936937e+004	1.25736380364897e+001,0.00000000000000e+000
1.53237837837838e+004	1.26187175448822e+001,0.00000000000000e+000
1.54238738738739e+004	1.26634131811202e+001,0.00000000000000e+000
1.55239639639640e+004	1.27077284840743e+001,0.00000000000000e+000
1.56240540540541e+004	1.27516669795138e+001,0.00000000000000e+000
1.57241441441442e+004	1.27952321794317e+001,0.00000000000000e+000
1.58242342342343e+004	1.28384275813982e+001,0.00000000000000e+000
1.59243243243243e+004	1.28812566679428e+001,0.00000000000000e+000
1.60244144144144e+004	1.29237229059637e+001,0.00000000000000e+000
1.61245045045045e+004	1.29658297461645e+001,0.00000000000000e+000
1.62245945945946e+004	1.30075806225165e+001,0.00000000000000e+000
1.63246846846847e+004	1.30489789517473e+001,0.00000000000000e+000
1.64247747747748e+004	1.30900281328535e+001,0.00000000000000e+000
1.65248648648649e+004	1.31307315466381e+001,0.00000000000000e+000
1.66249549549550e+004	1.31710925552717e+001,0.00000000000000e+000
1.67250450450451e+004	1.32111145018757e+001,0.00000000000000e+000
1.68251351351352e+004	1.32508007101288e+001,0.00000000000000e+000
1.69252252252252e+004	1.32901544838947e+001,0.00000000000000e+000
1.70253153153153e+004	1.33291791068706e+001,0.00000000000000e+000
1.71254054054054e+004	1.33678778422568e+001,0.00000000000000e+000
1.72254954954955e+004	1.34062539324456e+001,0.00000000000000e+000
1.73255855855856e+004	1.34443105987296e+001,0.00000000000000e+000
1.74256756756757e+004	1.34820510410290e+001,0.00000000000000e+000
1.75257657657658e+004	1.35194784376366e+001,0.00000000000000e+000
1.76258558558559e+004	1.35565959449805e+001,0.00000000000000e+000
1.77259459459460e+004	1.35934066974040e+001,0.00000000000000e+000
1.78260360360360e+004	1.36299138069619e+001,0.00000000000000e+000
1.79261261261261e+004	1.36661203632325e+001,0.00000000000000e+000
1.80262162162162e+004	1.37020294331458e+001,0.00000000000000e+000
1.81263063063063e+004	1.37376440608254e+001,0.00000000000000e+000
1.82263963963964e+004	1.37729672674464e+001,0.00000000000000e+000
1.83264864864865e+004	1.38080020511059e+001,0.00000000000000e+000
1.84265765765766e+004	1.38427513867079e+001,0.00000000000000e+000
1.85266666666667e+004	1.38772182258610e+001,0.00000000000000e+000
1.86267567567568e+004	1.39114054967883e+001,0.00000000000000e+000
1.87268468468468e+004	1.39453161042504e+001,0.00000000000000e+000
1.88269369369369e+004	1.39789529294788e+001,0.00000000000000e+000
1.89270270270270e+004	1.40123188301220e+001,0.00000000000000e+000
1.90271171171171e+004	1.40454166402016e+001,0.00000000000000e+000
1.91272072072072e+004	1.40782491700790e+001,0.00000000000000e+000
1.92272972972973e+004	1.41108192064325e+001,0.00000000000000e+000
1.93273873873874e+004	1.41431295122442e+001,0.00000000000000e+000
1.94274774774775e+004	1.41751828267957e+001,0.00000000000000e+000
1.95275675675676e+004	1.42069818656733e+001,0.00000000000000e+000
1.96276576576576e+004	1.42385293207817e+001,0.00000000000000e+000
1.97277477477477e+004	1.42698278603663e+001,0.00000000000000e+000
1.98278378378378e+004	1.43008801290426e+001,0.00000000000000e+000
1.99279279279279e+004	1.43316887478342e+001,0.00000000000000e+000
2.00280180180180e+004	1.43622563142180e+001,0.00000000000000e+000
2.01281081081081e+004	1.43925854021758e+001,0.00000000000000e+000
2.02281981981982e+004	1.44226785622530e+001,0.00000000000000e+000
2.03282882882883e+004	1.44525383216242e+001,0.00000000000000e+000
2.04283783783784e+004	1.44821671841644e+001,0.00000000000000e+000
2.05284684684684e+004	1.45115676305259e+001,0.00000000000000e+000
2.06285585585585e+004	1.45407421182215e+001,0.00000000000000e+000
2.07286486486486e+004	1.45696930817126e+001,0.00000000000000e+000
2.08287387387387e+004	1.45984229325026e+001,0.00000000000000e+000
2.09288288288288e+004	1.46269340592352e+001,0.00000000000000e+000
2.10289189189189e+004	1.46552288277968e+001,0.00000000000000e+000
2.11290090090090e+004	1.46833095814243e+001,0.00000000000000e+000
2.12290990990991e+004	1.47111786408163e+001,0.00000000000000e+000
2.13291891891892e+004	1.47388383042487e+001,0.00000000000000e+000
2.14292792792792e+004	1.47662908476935e+001,0.00000000000000e+000
2.15293693693693e+004	1.47935385249420e+001,0.00000000000000e+000
2.16294594594594e+004	1.48205835677307e+001,0.00000000000000e+000
2.17295495495495e+004	1.48474281858710e+001,0.00000000000000e+000
2.18296396396396e+004	1.48740745673808e+001,0.00000000000000e+000
2.19297297297297e+004	1.49005248786205e+001,0.00000000000000e+000
2.20298198198198e+004	1.49267812644302e+001,0.00000000000000e+000
2.21299099099099e+004	1.49528458482705e+001,0.00000000000000e+000
2.22299999999999e+004	1.49787207323647e+001,0.00000000000000e+000
2.23300900900900e+004	1.50044079978440e+001,0.00000000000000e+000
2.24301801801801e+004	1.50299097048942e+001,0.00000000000000e+000
2.25302702702702e+004	1.50552278929046e+001,0.00000000000000e+000
2.26303603603603e+004	1.50803645806184e+001,0.00000000000000e+000
2.27304504504504e+004	1.51053217662848e+001,0.00000000000000e+000
2.28305405405405e+004	1.51301014278127e+001,0.00000000000000e+000
2.29306306306306e+004	1.51547055229260e+001,0.00000000000000e+000
2.30307207207207e+004	1.51791359893191e+001,0.00000000000000e+000
2.31308108108107e+004	1.52033947448153e+001,0.00000000000000e+000
2.32309009009008e+004	1.52274836875242e+001,0.00000000000000e+000
2.33309909909909e+004	1.52514046960018e+001,0.00000000000000e+000
2.34310810810810e+004	1.52751596294102e+001,0.00000000000000e+000
2.35311711711711e+004	1.52987503276786e+001,0.00000000000000e+000
2.36312612612612e+004	1.53221786116647e+001,0.00000000000000e+000
2.37313513513513e+004	1.53454462833170e+001,0.00000000000000e+000
2.38314414414414e+004	1.53685551258367e+001,0.00000000000000e+000
2.39315315315315e+004	1.53915069038410e+001,0.00000000000000e+000
2.40316216216215e+004	1.54143033635261e+001,0.00000000000000e+000
2.41317117117116e+004	1.54369462328301e+001,0.00000000000000e+000
2.42318018018017e+004	1.54594372215968e+001,0.00000000000000e+000
2.43318918918918e+004	1.54817780217391e+001,0.00000000000000e+000
2.44319819819819e+004	1.55039703074022e+001,0.00000000000000e+000
2.45320720720720e+004	1.55260157351273e+001,0.00000000000000e+000
2.46321621621621e+004	1.55479159440144e+001,0.00000000000000e+000
2.47322522522522e+004	1.55696725558856e+001,0.00000000000000e+000
2.48323423423423e+004	1.55912871754478e+001,0.00000000000000e+000
2.49324324324323e+004	1.56127613904552e+001,0.00000000000000e+000
2.50325225225224e+004	1.56340967718711e+001,0.00000000000000e+000
2.51326126126125e+004	1.56552948740296e+001,0.00000000000000e+000
2.52327027027026e+004	1.56763572347970e+001,0.00000000000000e+000
2.53327927927927e+004	1.56972853757324e+001,0.00000000000000e+000
2.54328828828828e+004	1.57180808022474e+001,0.00000000000000e+000
2.55329729729729e+004	1.57387450037662e+001,0.00000000000000e+000
2.56330630630630e+004	1.57592794538840e+001,0.00000000000000e+000
2.57331531531531e+004	1.57796856105254e+001,0.00000000000000e+000
2.58332432432431e+004	1.57999649161019e+001,0.00000000000000e+000
2.59333333333332e+004	1.58201187976684e+001,0.00000000000000e+000
2.60334234234233e+004	1.58401486670796e+001,0.00000000000000e+000
2.61335135135134e+004	1.58600559211447e+001,0.00000000000000e+000
2.62336036036035e+004	1.58798419417818e+001,0.00000000000000e+000
2.63336936936936e+004	1.58995080961719e+001,0.00000000000000e+000
2.64337837837837e+004	1.59190557369106e+001,0.00000000000000e+000
2.65338738738738e+004	1.59384862021603e+001,0.00000000000000e+000
2.66339639639639e+004	1.59578008158011e+001,0.00000000000000e+000
2.67340540540539e+004	1.59770008875799e+001,0.00000000000000e+000
2.68341441441440e+004	1.59960877132600e+001,0.00000000000000e+000
2.69342342342341e+004	1.60150625747683e+001,0.00000000000000e+000
2.70343243243242e+004	1.60339267403422e+001,0.00000000000000e+000
2.71344144144143e+004	1.60526814646758e+001,0.00000000000000e+000
2.72345045045044e+004	1.60713279890640e+001,0.00000000000000e+000
2.73345945945945e+004	1.60898675415467e+001,0.00000000000000e+000
2.74346846846846e+004	1.61083013370512e+001,0.00000000000000e+000
2.75347747747747e+004	1.61266305775335e+001,0.00000000000000e+000
2.76348648648647e+004	1.61448564521192e+001,0.00000000000000e+000
2.77349549549548e+004	1.61629801372425e+001,0.00000000000000e+000
2.78350450450449e+004	1.61810027967845e+001,0.00000000000000e+000
2.79351351351350e+004	1.61989255822103e+001,0.00000000000000e+000
2.80352252252251e+004	1.62167496327050e+001,0.00000000000000e+000
2.81353153153152e+004	1.62344760753087e+001,0.00000000000000e+000
2.82354054054053e+004	1.62521060250499e+001,0.00000000000000e+000
2.83354954954954e+004	1.62696405850784e+001,0.00000000000000e+000
2.84355855855855e+004	1.62870808467964e+001,0.00000000000000e+000
2.85356756756755e+004	1.63044278899890e+001,0.00000000000000e+000
2.86357657657656e+004	1.63216827829533e+001,0.00000000000000e+000
2.87358558558557e+004	1.63388465826263e+001,0.00000000000000e+000
2.88359459459458e+004	1.63559203347118e+001,0.00000000000000e+000
2.89360360360359e+004	1.63729050738058e+001,0.00000000000000e+000
2.90361261261260e+004	1.63898018235213e+001,0.00000000000000e+000
2.91362162162161e+004	1.64066115966115e+001,0.00000000000000e+000
2.92363063063062e+004	1.64233353950920e+001,0.00000000000000e+000
2.93363963963963e+004	1.64399742103615e+001,0.00000000000000e+000
2.94364864864863e+004	1.64565290233224e+001,0.00000000000000e+000
2.95365765765764e+004	1.64730008044987e+001,0.00000000000000e+000
2.96366666666665e+004	1.64893905141540e+001,0.00000000000000e+000
